Title: ** sch_path: /home/designer/shared/amaru/analog/tb/tb_nmos_lv_vgs.sch
Date: Wed Sep  3 19:43:36  2025
Command: ngspice-44.2, Build Sun May  4 23:56:50 UTC 2025
Plotname: DC transfer characteristic
Flags: real
No. Variables: 16
No. Points: 151
Variables:
	0	v(v-sweep)	voltage
	1	i(ids)	current
	2	v(vth)	voltage
	3	gm	admittance
	4	gmb	admittance
	5	gds	admittance
	6	cgg	capacitance
	7	cgs	capacitance
	8	cgd	capacitance
	9	cgb	capacitance
	10	cdd	capacitance
	11	css	capacitance
	12	cgsol	capacitance
	13	cgdol	capacitance
	14	cjs	capacitance
	15	cjd	capacitance
Values:
 0	0.000000000000000e+00
	4.384096397333698e-10
	4.170970038465921e-01
	1.212271569822345e-08
	1.626442435070059e-09
	4.220005938937312e-10
	8.527993597475211e-16
	2.140153155450468e-18
	-2.745209764089442e-18
	8.534044163561601e-16
	8.005066811655715e-24
	1.993558208182174e-20
	6.047803116409113e-15
	5.546680315838726e-15
	3.979097730555080e-15
	3.149672055551986e-15

 1	1.000000000000000e-02
	5.782511361619662e-10
	4.170970038465921e-01
	1.600989510586051e-08
	2.127772176131283e-09
	5.562653762463257e-10
	8.472089881505327e-16
	2.134449879967896e-18
	-2.727198759775050e-18
	8.478017370303398e-16
	1.044346744382997e-23
	2.612352413860592e-20
	6.053616867148863e-15
	5.553517044099152e-15
	3.979097730555080e-15
	3.149672055551986e-15

 2	2.000000000000000e-02
	7.629252774579725e-10
	4.170970038465921e-01
	2.114815932597845e-08
	2.784804980007524e-09
	7.344667763925892e-10
	8.417343930772439e-16
	2.131590375118750e-18
	-2.709555762679848e-18
	8.423123584648050e-16
	1.363063585669169e-23
	3.424438645378237e-20
	6.059389286106090e-15
	5.560365244196892e-15
	3.979097730555080e-15
	3.149672055551986e-15

 3	3.000000000000000e-02
	1.006870242090415e-09
	4.170970038465921e-01
	2.794185534751448e-08
	3.646219903008890e-09
	9.709872597279490e-10
	8.363724807777780e-16
	2.132372873393469e-18
	-2.692269335592172e-18
	8.369323772399767e-16
	1.779814555860180e-23
	4.490535092906462e-20
	6.065119842049061e-15
	5.567224451299445e-15
	3.979097730555080e-15
	3.149672055551986e-15

 4	4.000000000000000e-02
	1.329192717118460e-09
	4.170970038465921e-01
	3.692648605019415e-08
	4.776003212338582e-09
	1.284931889166515e-09
	8.311205578419845e-16
	2.137851821179337e-18
	-2.675328862032499e-18
	8.316580348828376e-16
	2.324965307258729e-23
	5.890528270724965e-20
	6.070808021538780e-15
	5.574094188837651e-15
	3.979097730555080e-15
	3.149672055551986e-15

 5	5.000000000000000e-02
	1.755182805050650e-09
	4.170970038465921e-01
	4.881138441733049e-08
	6.258285647252321e-09
	1.701682812669932e-09
	8.259763926853165e-16
	2.149419191033448e-18
	-2.658724595362942e-18
	8.264856980896459e-16
	3.038347111587101e-23
	7.729550630410744e-20
	6.076453329260047e-15
	5.580973968474586e-15
	3.979097730555080e-15
	3.149672055551986e-15

 6	6.000000000000000e-02
	2.318321987295877e-09
	4.170970038465921e-01
	6.453630548470539e-08
	8.203714325906736e-09
	2.254966421305586e-09
	8.209383007273884e-16
	2.168911748925919e-18
	-2.642447736666302e-18
	8.214118367151288e-16
	3.972225292422393e-23
	1.014599204068545e-19
	6.082055288328735e-15
	5.587863290084729e-15
	3.979097730555080e-15
	3.149672055551986e-15

 7	7.000000000000001e-02
	3.062944977810261e-09
	4.170970038465921e-01
	8.534648003265398e-08
	1.075784730198203e-08
	2.989602441216674e-09
	8.160052605719305e-16
	2.198752575973659e-18
	-2.626490549715241e-18
	8.164329985456720e-16
	5.195204315317686e-23
	1.332206192277071e-19
	6.087613440574765e-15
	5.594761641743913e-15
	3.979097730555080e-15
	3.149672055551986e-15

 8	8.000000000000000e-02
	4.047768792944401e-09
	4.170970038465921e-01
	1.128921552587546e-07
	1.411221381915584e-08
	3.965160058217800e-09
	8.111770708655127e-16
	2.242137798555772e-18
	-2.610846524100807e-18
	8.115457795910577e-16
	6.797367168321859e-23
	1.749771555300964e-19
	6.093127346800416e-15
	5.601668499730447e-15
	3.979097730555080e-15
	3.149672055551986e-15

 9	9.000000000000000e-02
	5.350571966052353e-09
	4.170970038465921e-01
	1.493606082376813e-07
	1.851888723756454e-08
	5.260820357871554e-09
	8.064545606349025e-16
	2.303282979964825e-18
	-2.595510601200290e-18
	8.067467882561379e-16
	8.897042250237159e-23
	2.298901720506586e-19
	6.098596587013575e-15
	5.608583328537867e-15
	3.979097730555080e-15
	3.149672055551986e-15

 10	9.999999999999999e-02
	7.074399054944399e-09
	4.170970038465921e-01
	1.976512096117091e-07
	2.430968546156591e-08
	6.981842827931223e-09
	8.018398700164509e-16
	2.387748235890213e-18
	-2.580479482403857e-18
	8.020326012629645e-16
	1.164971776286465e-22
	3.021235389454198e-19
	6.104020760635670e-15
	5.615505580899747e-15
	3.979097730555080e-15
	3.149672055551986e-15

 11	1.100000000000000e-01
	9.355787669299299e-09
	4.170970038465921e-01
	2.616075349551895e-07
	3.192146484519162e-08
	9.268164201880147e-09
	7.973368237041853e-16
	2.502867199350434e-18
	-2.565752045228059e-18
	7.973997085500629e-16
	1.525979203161764e-22
	3.971636182057488e-19
	6.109399486684053e-15
	5.622434697826968e-15
	3.979097730555080e-15
	3.149672055551986e-15

 12	1.200000000000000e-01
	1.237567671574741e-08
	4.170970038465921e-01
	3.463250236583511e-07
	4.192943267198152e-08
	1.230583073154058e-08
	7.929514265556453e-16
	2.658312923398447e-18
	-2.551329901047729e-18
	7.928444435332946e-16
	1.999607276214915e-22
	5.222401582385930e-19
	6.114732403928715e-15
	5.629370108657891e-15
	3.979097730555080e-15
	3.149672055551986e-15

 13	1.300000000000000e-01
	1.637386776299510e-08
	4.170970038465921e-01
	4.585585934585811e-07
	5.509100148305848e-08
	1.634219323038769e-08
	7.886925201182780e-16
	2.866844242533749e-18
	-2.537218138710263e-18
	7.883628940144545e-16
	2.621223832678510e-22
	6.868810203989763e-19
	6.120019171023209e-15
	5.636311231121811e-15
	3.979097730555080e-15
	3.149672055551986e-15

 14	1.400000000000000e-01
	2.166819241480661e-08
	4.170970038465921e-01
	6.072623377113656e-07
	7.240348396473065e-08
	2.170609489363172e-08
	7.845726510237152e-16
	3.145289738518664e-18
	-2.523426311892635e-18
	7.839507875970892e-16
	3.437387709865673e-22
	9.036429809883695e-19
	6.125259466609796e-15
	5.643257471416129e-15
	3.979097730555080e-15
	3.149672055551986e-15

 15	1.500000000000000e-01
	2.867990780101249e-08
	4.170970038465921e-01
	8.043034561046053e-07
	9.517992555472449e-08
	2.883467635065582e-08
	7.806092180522071e-16
	3.515844172485369e-18
	-2.509969745459783e-18
	7.796033436251815e-16
	4.509426417467827e-22
	1.189073889879974e-18
	6.130452989398863e-15
	5.650208224297580e-15
	3.979097730555080e-15
	3.149672055551986e-15

 16	1.600000000000000e-01
	3.796732570176983e-08
	4.170970038465921e-01
	1.065405477131845e-06
	1.251486452685218e-07
	3.830893721566511e-08
	7.768259851789136e-16
	4.007775143651419e-18
	-2.496871258052423e-18
	7.753150812933146e-16
	5.918177266737093e-22
	1.564978287173303e-18
	6.135599458222717e-15
	5.657162873187917e-15
	3.979097730555080e-15
	3.149672055551986e-15

 17	1.700000000000000e-01
	5.027031031426000e-08
	4.170970038465921e-01
	1.411392257747572e-06
	1.645836575000633e-07
	5.090086028711095e-08
	7.732550742285700e-16
	4.659667087750778e-18
	-2.484163425371000e-18
	7.710795705661902e-16
	7.770282558041137e-22
	2.060080089902394e-18
	6.140698612063939e-15
	5.664120790294413e-15
	3.979097730555080e-15
	3.149672055551986e-15

 18	1.800000000000000e-01
	6.656909366731762e-08
	4.170970038465921e-01
	1.869824803916008e-06
	2.164751248091873e-07
	6.763575977762153e-08
	7.699395841455648e-16
	5.522366922221319e-18
	-2.471891541451206e-18
	7.668891087647947e-16
	1.020656871757311e-21
	2.712203133202186e-18
	6.145750210058556e-15
	5.671081336745487e-15
	3.979097730555080e-15
	3.149672055551986e-15

 19	1.900000000000000e-01
	8.816189978003589e-08
	4.170970038465921e-01
	2.477148057187843e-06
	2.847513618183768e-07
	8.987459600856314e-08
	7.669370255486154e-16
	6.662842005833345e-18
	-2.460117473087895e-18
	7.627343010158700e-16
	1.341323358962093e-21
	3.571124075865149e-18
	6.150754031474300e-15
	5.678043862741813e-15
	3.979097730555080e-15
	3.149672055551986e-15

 20	2.000000000000000e-01
	1.167671842850147e-07
	4.170970038465921e-01
	3.281494301655292e-06
	3.745666240458658e-07
	1.194223374674667e-07
	7.643238100197492e-16
	8.169217492717173e-18
	-2.448924643012007e-18
	7.586035171700440e-16
	1.763684048576185e-21
	4.702292967726983e-18
	6.155709875664362e-15
	5.685007707723176e-15
	3.979097730555080e-15
	3.149672055551986e-15

 21	2.100000000000000e-01
	1.546579242128522e-07
	4.170970038465921e-01
	4.346322434444192e-06
	4.926717862815812e-07
	1.586700576435822e-07
	7.622010932764098e-16
	1.015732632661884e-17
	-2.438424414367977e-18
	7.544821913641589e-16
	2.320451016889342e-21
	6.191664168448230e-18
	6.160617561997022e-15
	5.691972200551386e-15
	3.979097730555080e-15
	3.149672055551986e-15

 22	2.200000000000001e-01
	2.048373480452659e-07
	4.170970038465921e-01
	5.755104350446270e-06
	6.478875981320929e-07
	2.107802898578891e-07
	7.607023375465917e-16
	1.277917819692433e-17
	-2.428764169691187e-18
	7.503519235193586e-16
	3.055127118404266e-21
	8.151931818404488e-18
	6.165476929761632e-15
	5.698936659709473e-15
	3.979097730555080e-15
	3.149672055551986e-15

 23	2.300000000000001e-01
	2.712677382195794e-07
	4.170970038465921e-01
	7.617293204105314e-06
	8.517015969025770e-07
	2.799270891783504e-07
	7.600030242931569e-16
	1.623382598903137e-17
	-2.420137357373014e-18
	7.461893356614985e-16
	4.025736493187917e-21
	1.073051333447627e-17
	6.170287838051511e-15
	5.705900393517396e-15
	3.979097730555080e-15
	3.149672055551986e-15

 24	2.400000000000001e-01
	3.591663136438695e-07
	4.170970038465921e-01
	1.007580809130156e-05
	1.119008288062820e-06
	3.716039397895029e-07
	7.603329991746603e-16
	2.078116291880330e-17
	-2.412795673002091e-18
	7.419646319288591e-16
	5.309954297045329e-21
	1.411965814685050e-17
	6.175050165624267e-15
	5.712862700364491e-15
	3.979097730555080e-15
	3.149672055551986e-15

 25	2.500000000000001e-01
	4.753843477288975e-07
	4.170970038465921e-01
	1.331621861877454e-05
	1.469004981325477e-06
	4.930134441364806e-07
	7.619919384770438e-16
	2.675918872444832e-17
	-2.407063275133023e-18
	7.376398130277285e-16
	7.012224991028742e-21
	1.856905207644165e-17
	6.179763810740231e-15
	5.719822868958772e-15
	3.979097730555080e-15
	3.149672055551986e-15

 26	2.600000000000001e-01
	6.288868818307986e-07
	4.170970038465921e-01
	1.757766582734828e-05
	1.926238023349763e-06
	6.535514424894395e-07
	7.653683399616762e-16
	3.460518251408981e-17
	-2.403352378489299e-18
	7.331665098260757e-16
	9.273736541443522e-21
	2.440119657374958e-17
	6.184428690979607e-15
	5.726780178593289e-15
	3.979097730555080e-15
	3.149672055551986e-15

 27	2.700000000000001e-01
	8.313493710848838e-07
	4.170970038465921e-01
	2.316524363231410e-05
	2.521759120920755e-06
	8.653928179606001e-07
	7.709621778647448e-16
	4.488091972610383e-17
	-2.402178525602827e-18
	7.284834366642438e-16
	1.228653180954675e-20
	3.202959479286481e-17
	6.189044743039080e-15
	5.733733899429580e-15
	3.979097730555080e-15
	3.149672055551986e-15

 28	2.800000000000001e-01
	1.097882236254919e-06
	4.170970038465921e-01
	3.046299114781831e-05
	3.294289738450619e-06
	1.144173580608455e-06
	7.794107934276163e-16
	5.830142769336896e-17
	-2.404172026806629e-18
	7.235135377610540e-16
	1.631364412649999e-20
	4.197926427384555e-17
	6.193611922508606e-15
	5.740683292798334e-15
	3.979097730555080e-15
	3.149672055551986e-15

 29	2.900000000000001e-01
	1.447881420295085e-06
	4.170970038465921e-01
	3.994569954453125e-05
	4.291193318263574e-06
	1.509739415475650e-06
	7.915165398331218e-16
	7.576558882536871e-17
	-2.410079116321217e-18
	7.181610301240743e-16
	2.171800104536288e-20
	5.490816969242860e-17
	6.198130203629155e-15
	5.747627611517272e-15
	3.979097730555080e-15
	3.149672055551986e-15

 30	3.000000000000001e-01
	1.905978469861376e-06
	4.170970038465921e-01
	5.218633681872766e-05
	5.568915360957924e-06
	1.986889307156814e-06
	8.082729507674197e-16
	9.838493593923439e-17
	-2.420741938316647e-18
	7.123087567665020e-16
	2.900398220667189e-20
	7.162665722502114e-17
	6.202599579032216e-15
	5.754566100226244e-15
	3.979097730555080e-15
	3.149672055551986e-15

 31	3.100000000000001e-01
	2.503022966339865e-06
	4.170970038465921e-01
	6.785410240495082e-05
	7.192382645878209e-06
	2.605979527801186e-06
	8.308835796592398e-16
	1.275040485980586e-16
	-2.437040426674176e-18
	7.058165714878554e-16
	3.887688139810307e-20
	9.310974793362377e-17
	6.207020059461894e-15
	5.761497995739495e-15
	3.979097730555080e-15
	3.149672055551986e-15

 32	3.200000000000001e-01
	3.276971069513964e-06
	4.170970038465921e-01
	8.769635475920931e-05
	9.232706692336789e-06
	3.403168825591153e-06
	8.607641994638842e-16
	1.647021017280633e-16
	-2.459772090598810e-18
	6.985218698264197e-16
	5.232681214114058e-20
	1.204942868990132e-16
	6.211391673480449e-15
	5.768422527415012e-15
	3.979097730555080e-15
	3.149672055551986e-15

 33	3.300000000000001e-01
	4.273481331676597e-06
	4.170970038465921e-01
	1.124969564016227e-04
	1.176253075589459e-05
	4.419994062380247e-06
	8.995153337605752e-16
	2.117609905815011e-16
	-2.489439863298112e-18
	6.902437830423723e-16
	7.074406264192043e-20
	1.550500065553386e-16
	6.215714467158153e-15
	5.775338917540813e-15
	3.979097730555080e-15
	3.149672055551986e-15

 34	3.400000000000001e-01
	5.545952115731461e-06
	4.170970038465921e-01
	1.430058046850048e-04
	1.484868786849168e-05
	5.701905068158994e-06
	9.488496531140924e-16
	2.705827997862742e-16
	-2.525918287125601e-18
	6.807927716149438e-16
	9.607111770931958e-20
	1.981119506509222e-16
	6.219988503748345e-15
	5.782246381738024e-15
	3.979097730555080e-15
	3.149672055551986e-15

 35	3.500000000000001e-01
	7.154714478182379e-06
	4.170970038465921e-01
	1.798417059213391e-04
	1.854270959213809e-05
	7.295427394040399e-06
	1.010460419511089e-15
	3.430413423476062e-16
	-2.567982045234842e-18
	6.699870592087173e-16
	1.309903920822027e-19
	2.509638643471814e-16
	6.224213863348619e-15
	5.789144129380483e-15
	3.979097730555080e-15
	3.149672055551986e-15

 36	3.600000000000002e-01
	9.165178948064274e-06
	4.170970038465921e-01
	2.233842816172877e-04
	2.287117460203673e-05
	9.243848733956162e-06
	1.085826474332571e-15
	4.307630568277140e-16
	-2.612716552353278e-18
	6.576761340572098e-16
	1.791340227449028e-19
	3.146710448651074e-16
	6.228390642549013e-15
	5.796031364030657e-15
	3.979097730555080e-15
	3.149672055551986e-15

 37	3.700000000000002e-01
	1.164497427593376e-05
	4.170970038465921e-01
	2.736870231467820e-04
	2.782946090296612e-05
	1.158178943404502e-05
	1.175968528981137e-15
	5.348542248383651e-16
	-2.654890413274634e-18
	6.437691945560465e-16
	2.452826236500061e-19
	3.898783196867420e-16
	6.232518954068154e-15
	5.802907283891504e-15
	3.979097730555080e-15
	3.149672055551986e-15

 38	3.800000000000002e-01
	1.466049689294428e-05
	4.170970038465921e-01
	3.304532858055566e-04
	3.338305945763256e-05
	1.432964198688754e-05
	1.281198059233550e-15
	6.556211733175174e-16
	-2.686440377267808e-18
	6.282633262933001e-16
	3.354983307805653e-19
	4.766112372861093e-16
	6.236598926378280e-15
	5.809771082273965e-15
	3.979097730555080e-15
	3.149672055551986e-15

 39	3.900000000000002e-01
	1.827367852660091e-05
	4.170970038465921e-01
	3.931070007996349e-04
	3.947891990510140e-05
	1.748937735312034e-05
	1.400923336040713e-15
	7.923559138923100e-16
	-2.696265296016684e-18
	6.112636874444197e-16
	4.571249587848258e-19
	5.741363685796220e-16
	6.240630703320043e-15
	5.816621948079638e-15
	3.979097730555080e-15
	3.149672055551986e-15

 40	4.000000000000002e-01
	2.253994090819601e-05
	4.170970038465921e-01
	4.609549697077200e-04
	4.606510080891926e-05
	2.104323119334295e-05
	1.533580958735299e-15
	9.432635295353227e-16
	-2.670500677396485e-18
	5.929879298773726e-16
	6.185990894791995e-19
	6.809360055539893e-16
	6.244614443708039e-15
	5.823459066298215e-15
	3.979097730555080e-15
	3.149672055551986e-15

 41	4.100000000000002e-01
	2.750804423440436e-05
	4.170970038465921e-01
	5.333918913859762e-04
	5.311223739193263e-05
	2.495607096383618e-05
	1.676734462547490e-15
	1.105577123313345e-15
	-2.593327581884569e-18
	5.737506668160302e-16
	8.290579300033635e-19
	7.948253291820262e-16
	6.248550320927976e-15
	5.830281618519125e-15
	3.979097730555080e-15
	3.149672055551986e-15

 42	4.200000000000002e-01
	3.322188531891467e-05
	4.170970038465921e-01
	6.100724880239004e-04
	6.062837261434323e-05
	2.918101553602647e-05
	1.827330027011141e-15
	1.275848132857032e-15
	-2.448193766119136e-18
	5.539300879202281e-16
	1.097792455203220e-18
	9.131939318948128e-16
	6.252438522526382e-15
	5.837088783456898e-15
	3.979097730555080e-15
	3.149672055551986e-15

 43	4.300000000000002e-01
	3.972357869515667e-05
	4.170970038465921e-01
	6.909889626571068e-04
	6.866144929862890e-05
	3.366675202024778e-05
	1.982047141034868e-15
	1.450341498419925e-15
	-2.219176491745529e-18
	5.339248191066882e-16
	1.433649801349710e-18
	1.033311044430255e-15
	6.256279249793769e-15
	5.843879737489555e-15
	3.979097730555080e-15
	3.149672055551986e-15

 44	4.400000000000002e-01
	4.705675279410163e-05
	4.170970038465921e-01
	7.764384540040341e-04
	7.728960609980678e-05
	3.836457324321323e-05
	2.137656243588320e-15
	1.625436711466116e-15
	-1.892175019451285e-18
	5.141117071416550e-16
	1.844508277440760e-18
	1.152617450291420e-15
	6.260072717342116e-15
	5.850653655209471e-15
	3.979097730555080e-15
	3.149672055551986e-15

 45	4.500000000000002e-01
	5.526909004959788e-05
	4.170970038465921e-01
	8.669124749425520e-04
	8.660445968515475e-05
	4.323358232462586e-05
	2.291306172954723e-15
	1.797948472549990e-15
	-1.455701792989535e-18
	4.948134021977229e-16
	2.336922408937947e-18
	1.268942692717649e-15
	6.263819152677576e-15
	5.857409709985935e-15
	3.979097730555080e-15
	3.149672055551986e-15

 46	4.600000000000002e-01
	6.441359251619843e-05
	4.170970038465921e-01
	9.629614732241266e-04
	9.669403207353168e-05
	4.824341069380236e-05
	2.440700139176020e-15
	1.965321301686594e-15
	-9.011898581791499e-19
	4.762800273476048e-16
	2.915979974899880e-18
	1.380620654391904e-15
	6.267518795769233e-15
	5.864147074538700e-15
	3.979097730555080e-15
	3.149672055551986e-15

 47	4.700000000000003e-01
	7.454856413613535e-05
	4.170970038465921e-01
	1.065079313406385e-03
	1.076301135825173e-04
	5.337464961213629e-05
	2.584158283024546e-15
	2.125696647296153e-15
	-2.228726681045537e-19
	4.586845083964968e-16
	3.585355741087017e-18
	1.486510219339022e-15
	6.271171898614756e-15
	5.870864921521733e-15
	3.979097730555080e-15
	3.149672055551986e-15

 48	4.800000000000003e-01
	8.573663862120263e-05
	4.170970038465921e-01
	1.173629569565552e-03
	1.194617410253869e-04
	5.861768112784941e-05
	2.720591516212077e-15
	2.277880750255299e-15
	5.826282226999046e-19
	4.421281377340777e-16
	4.347508761399509e-18
	1.585947726711318e-15
	6.274778724803772e-15
	5.877562424116307e-15
	3.979097730555080e-15
	3.149672055551986e-15

 49	4.900000000000003e-01
	9.804328900319798e-05
	4.170970038465921e-01
	1.288814409543667e-03
	1.322140237412613e-04
	6.397068591021358e-05
	2.849420916488970e-15
	2.421252016026645e-15
	1.516857507547196e-18
	4.266520429547773e-16
	5.203957802494698e-18
	1.678662584795468e-15
	6.278339549079742e-15
	5.884238756632596e-15
	3.979097730555080e-15
	3.149672055551986e-15

 50	5.000000000000002e-01
	1.115351960936903e-04
	4.170970038465921e-01
	1.410675250276891e-03
	1.458904597223692e-04
	6.943745006333276e-05
	2.970473835796658e-15
	2.555642931974616e-15
	2.580100400391633e-18
	4.122508034216500e-16
	6.155576690337263e-18
	1.764681983310954e-15
	6.281854656901102e-15
	5.890893095118813e-15
	3.979097730555080e-15
	3.149672055551986e-15

 51	5.100000000000002e-01
	1.262787257948469e-04
	4.170970038465921e-01
	1.539111746417491e-03
	1.604768823414091e-04
	7.502535802953657e-05
	3.083878940042303e-15
	2.681221395397583e-15
	3.771898027569116e-18
	3.988856466171505e-16
	7.202868053396273e-18
	1.844241544481696e-15
	6.285324344002430e-15
	5.897524617976983e-15
	3.979097730555080e-15
	3.149672055551986e-15

 52	5.200000000000002e-01
