Title: ** sch_path: /home/designer/shared/amaru/analog/tb/tb_nmos_lv_vgs.sch
Date: Wed Sep  3 19:43:57  2025
Command: ngspice-44.2, Build Sun May  4 23:56:50 UTC 2025
Plotname: DC transfer characteristic
Flags: real
No. Variables: 16
No. Points: 151
Variables:
	0	v(v-sweep)	voltage
	1	i(ids)	current
	2	v(vth)	voltage
	3	gm	admittance
	4	gmb	admittance
	5	gds	admittance
	6	cgg	capacitance
	7	cgs	capacitance
	8	cgd	capacitance
	9	cgb	capacitance
	10	cdd	capacitance
	11	css	capacitance
	12	cgsol	capacitance
	13	cgdol	capacitance
	14	cjs	capacitance
	15	cjd	capacitance
Values:
 0	0.000000000000000e+00
	5.203911819101744e-09
	2.543240875861030e-01
	1.620781121051192e-07
	2.217557902115045e-08
	3.552206450107537e-09
	6.378241612350125e-15
	1.285314416054829e-17
	-7.097565779933636e-21
	6.365395565755357e-15
	2.724811017572218e-21
	6.293416624565605e-18
	6.047803116401262e-15
	5.546680315829534e-15
	3.979097730555080e-15
	3.149672055551986e-15

 1	1.000000000000000e-02
	7.106436745765060e-09
	2.543240875861030e-01
	2.215053726615187e-07
	3.008804629005454e-08
	4.871864093922131e-09
	6.347421340408411e-15
	1.587679387850047e-17
	-5.718721569413496e-21
	6.331550265251479e-15
	3.706020633073100e-21
	8.558681149406546e-18
	6.053616867141418e-15
	5.553517044090356e-15
	3.979097730555080e-15
	3.149672055551986e-15

 2	2.000000000000000e-02
	9.706744408077569e-09
	2.543240875861030e-01
	3.027737884642175e-07
	4.083472574586213e-08
	6.684118222444824e-09
	6.318114802884241e-15
	2.000414818727216e-17
	-3.861675992967551e-21
	6.298114516372962e-15
	5.041898147497959e-21
	1.164188111622651e-17
	6.059389286099033e-15
	5.560365244188483e-15
	3.979097730555080e-15
	3.149672055551986e-15

 3	3.000000000000000e-02
	1.326132282101375e-08
	2.543240875861030e-01
	4.139166986653670e-07
	5.543281855360425e-08
	9.172940461271170e-09
	6.290658620684310e-15
	2.563526129569716e-17
	-1.352352239757747e-21
	6.265024711740852e-15
	6.861004296246598e-21
	1.583876090544154e-17
	6.065119842042375e-15
	5.567224451291405e-15
	3.979097730555080e-15
	3.149672055551986e-15

 4	4.000000000000000e-02
	1.812096421277403e-08
	2.543240875861030e-01
	5.659137670355995e-07
	7.526388214379049e-08
	1.259090277629313e-08
	6.265517510305120e-15
	3.331493152571817e-17
	2.046597511936153e-21
	6.232200532181890e-15
	9.338551550649720e-21
	2.155174846075358e-17
	6.070808021532448e-15
	5.574094188829971e-15
	3.979097730555080e-15
	3.149672055551986e-15

 5	5.000000000000000e-02
	2.476530144219542e-08
	2.543240875861030e-01
	7.737595832953958e-07
	1.022029182702439e-07
	1.728457677627021e-08
	6.243330057062258e-15
	4.378453578453012e-17
	6.658717366580735e-21
	6.199538862560362e-15
	1.271328909390144e-20
	2.932802445592207e-17
	6.076453329254057e-15
	5.580973968467251e-15
	3.979097730555080e-15
	3.149672055551986e-15

 6	6.000000000000000e-02
	3.384981885354923e-08
	2.543240875861030e-01
	1.057907777104139e-06
	1.387917057067055e-07
	2.372914876997469e-08
	6.224970455770905e-15
	5.805188037736570e-17
	1.292487593231562e-20
	6.166905650517607e-15
	1.731043191940232e-20
	3.991075321119851e-17
	6.082055288323068e-15
	5.587863290077727e-15
	3.979097730555080e-15
	3.149672055551986e-15

 7	7.000000000000001e-02
	4.626967361097614e-08
	2.543240875861030e-01
	1.446211531679395e-06
	1.884701697282277e-07
	3.257541847462923e-08
	6.211631344328954e-15
	7.748483019802198e-17
	2.144543062402063e-20
	6.134125068700308e-15
	2.357272996452964e-20
	5.430763936679080e-17
	6.087613440569407e-15
	5.594761641737233e-15
	3.979097730555080e-15
	3.149672055551986e-15

 8	8.000000000000000e-02
	6.324601650305565e-08
	2.543240875861030e-01
	1.976510343446728e-06
	2.558826520111398e-07
	4.471327914831726e-08
	6.204934108230815e-15
	1.039358749926555e-16
	3.303714739429122e-20
	6.100965196090765e-15
	3.210243843255682e-20
	7.388194688721879e-17
	6.093127346795354e-15
	5.601668499724076e-15
	3.979097730555080e-15
	3.149672055551986e-15

 9	9.000000000000000e-02
	8.644213790764137e-08
	2.543240875861030e-01
	2.700039456401383e-06
	3.472785535627541e-07
	6.135683412995557e-08
	6.207074228591507e-15
	1.399061130838942e-16
	4.880967649146766e-20
	6.067119305831122e-15
	4.371777207769517e-20
	1.004719955630272e-16
	6.098596587008796e-15
	5.608583328531794e-15
	3.979097730555080e-15
	3.149672055551986e-15

 10	9.999999999999999e-02
	1.181186133283837e-07
	2.543240875861030e-01
	3.685851692144130e-06
	4.710276171339591e-07
	8.415735814623372e-08
	6.221009962784408e-15
	1.887579015327488e-16
	7.026762708770032e-20
	6.032181793624572e-15
	5.952839024276929e-20
	1.365455573491316e-16
	6.104020760631157e-15
	5.615505580893961e-15
	3.979097730555080e-15
	3.149672055551986e-15

 11	1.100000000000000e-01
	1.613384546229462e-07
	2.543240875861030e-01
	5.026419931459116e-06
	6.382665054089111e-07
	1.153510510111019e-07
	6.250702043369032e-15
	2.549846821589080e-16
	9.944556122197169e-20
	5.995617915648903e-15
	8.103549273834521e-20
	1.853947685057018e-16
	6.109399486679796e-15
	5.622434697821459e-15
	3.979097730555080e-15
	3.149672055551986e-15

 12	1.200000000000000e-01
	2.202345652445129e-07
	2.543240875861030e-01
	6.844493866929616e-06
	8.636807898431104e-07
	1.579483270955004e-07
	6.301408617018206e-15
	3.445425021180570e-16
	1.390842398491852e-19
	5.956727030660300e-15
	1.102630203796190e-19
	2.513738157277789e-16
	6.114732403924702e-15
	5.629370108652646e-15
	3.979097730555080e-15
	3.149672055551986e-15

 13	1.300000000000000e-01
	3.003515296745272e-07
	2.543240875861030e-01
	9.301054584086513e-06
	1.166397832550943e-06
	2.159690871858835e-07
	6.380030738153656e-15
	4.652375909496813e-16
	1.928565938591748e-19
	5.914600290610115e-15
	1.499268522202700e-19
	3.401735359382361e-16
	6.120019171019426e-15
	5.636311231116820e-15
	3.979097730555080e-15
	3.149672055551986e-15

 14	1.400000000000000e-01
	4.090701632393553e-07
	2.543240875861030e-01
	1.260375702180772e-05
	1.570911537653382e-06
	2.947221360946561e-07
	6.495485503122152e-15
	6.271436668821790e-16
	2.656500664084140e-19
	5.868076186173565e-15
	2.036480406108390e-19
	4.591109365704776e-16
	6.125259466606230e-15
	5.643257471411382e-15
	3.979097730555080e-15
	3.149672055551986e-15

 15	1.500000000000000e-01
	5.561135819540930e-07
	2.543240875861030e-01
	1.701447691088674e-05
	2.107869599406235e-06
	4.011139028408156e-07
	6.659051481270527e-15
	8.429859550317768e-16
	3.639064094029285e-19
	5.815701619829347e-15
	2.762128045459072e-19
	6.173835478643023e-16
	6.130452989395504e-15
	5.650208224293063e-15
	3.979097730555080e-15
	3.149672055551986e-15

 16	1.600000000000000e-01
	7.541143274884509e-07
	2.543240875861030e-01
	2.285344478824941e-05
	2.814425611435463e-06
	5.439487385833902e-07
	6.884580454481375e-15
	1.128371763441385e-15
	4.960082226733928e-19
	5.755712682817317e-15
	3.738744236493538e-19
	8.261955860361991e-16
	6.135599458219552e-15
	5.657162873183619e-15
	3.979097730555080e-15
	3.149672055551986e-15

 17	1.700000000000000e-01
	1.019190253021243e-06
	2.543240875861030e-01
	3.049611864066176e-05
	3.733715695440506e-06
	7.341484649874041e-07
	7.188402546890783e-15
	1.501672214296614e-15
	6.726807283681803e-19
	5.686057651865801e-15
	5.046781960750968e-19
	1.098607915061733e-15
	6.140698612060954e-15
	5.664120790290321e-15
	3.979097730555080e-15
	3.149672055551986e-15

 18	1.800000000000000e-01
	1.371433019329688e-06
	2.543240875861030e-01
	4.035802330578448e-05
	4.912937753417054e-06
	9.847759753443183e-07
	7.588686172589086e-15
	1.983286408406748e-15
	9.073459742429017e-19
	5.604492418208095e-15
	6.787686573029429e-19
	1.448913578135927e-15
	6.145750210055739e-15
	5.671081336741587e-15
	3.979097730555080e-15
	3.149672055551986e-15

 19	1.900000000000000e-01
	1.835166889205291e-06
	2.543240875861030e-01
	5.286350342316456e-05
	6.399636017664354e-06
	1.310711651661290e-06
	8.103995089746683e-15
	2.593999162225072e-15
	1.216327891042371e-18
	5.508779599630568e-15
	9.086093774086631e-19
	1.891335870454685e-15
	6.150754031471635e-15
	5.678043862738088e-15
	3.979097730555080e-15
	3.149672055551986e-15

 20	2.000000000000000e-01
	2.438811450857871e-06
	2.543240875861030e-01
	6.839828128571054e-05
	8.236295798624651e-06
	1.727834057172984e-06
	8.750887331032624e-15
	3.352261175427815e-15
	1.618772578668931e-18
	5.397007383026141e-15
	1.209016880907757e-18
	2.437950718651554e-15
	6.155709875661836e-15
	5.685007707719610e-15
	3.979097730555080e-15
	3.149672055551986e-15

 21	2.100000000000000e-01
	3.214216910792220e-06
	2.543240875861030e-01
	8.725348224221246e-05
	1.045426540539590e-05
	2.251640377066581e-06
	9.540697078619251e-15
	4.270556785663028e-15
	2.136142983705926e-18
	5.268004149972517e-15
	1.596897258803824e-18
	3.096005049101623e-15
	6.160617561994617e-15
	5.691972200547959e-15
	3.979097730555080e-15
	3.149672055551986e-15

 22	2.200000000000001e-01
	4.195463445419948e-06
	2.543240875861030e-01
	1.095777875263051e-04
	1.306898645475651e-05
	2.895430544704243e-06
	1.047611384383444e-14
	5.351558752083068e-15
	2.791200762230962e-18
	5.121763890989145e-15
	2.090598935611341e-18
	3.865207756591407e-15
	6.165476929759333e-15
	5.698936659706161e-15
	3.979097730555080e-15
	3.149672055551986e-15

 23	2.300000000000001e-01
	5.417308575333139e-06
	2.543240875861030e-01
	1.353579905068604e-04
	1.607873919710347e-05
	3.668426351527019e-06
	1.154862160031191e-14
	6.585272053914334e-15
	3.606515519360581e-18
	4.959743030878216e-15
	2.708873877959498e-18
	4.735917212684172e-15
	6.170287838049298e-15
	5.705900393514178e-15
	3.979097730555080e-15
	3.149672055551986e-15

 24	2.400000000000001e-01
	6.913638994123547e-06
	2.543240875861030e-01
	1.644399664497573e-04
	1.946792369326150e-05
	4.574367512273347e-06
	1.273792770384978e-14
	7.948437514892256e-15
	4.602714264201208e-18
	4.784887474693319e-15
	3.469562116790207e-18
	5.689130797223399e-15
	6.175050165622119e-15
	5.712862700361335e-15
	3.979097730555080e-15
	3.149672055551986e-15

 25	2.500000000000001e-01
	8.716315275894212e-06
	2.543240875861030e-01
	1.965834932249430e-04
	2.321367072921557e-05
	5.611065928684238e-06
	1.401395150746026e-14
	9.406826639447463e-15
	5.796822948873878e-18
	4.601328045063925e-15
	4.388233258663327e-18
	6.698622073355904e-15
	6.179763810738128e-15
	5.719822868955651e-15
	3.979097730555080e-15
	3.149672055551986e-15

 26	2.600000000000001e-01
	1.085464062400710e-05
	2.543240875861030e-01
	2.315276172694759e-04
	2.729285080406331e-05
	6.771078127123045e-06
	1.534094247761610e-14
	1.091992736233690e-14
	7.201069716851206e-18
	4.413814045562355e-15
	5.477068238430153e-18
	7.734692290672903e-15
	6.184428690977526e-15
	5.726780178590170e-15
	3.979097730555080e-15
	3.149672055551986e-15

 27	2.700000000000001e-01
	1.335542584594563e-05
	2.543240875861030e-01
	2.690409990184721e-04
	3.168669120733406e-05
	8.043241074271642e-06
	1.668244964561067e-14
	1.244656768121181e-14
	8.822389133728053e-18
	4.227059575265136e-15
	6.744207888460914e-18
	8.768346936321508e-15
	6.189044743036999e-15
	5.733733899426430e-15
	3.979097730555080e-15
	3.149672055551986e-15

 28	2.800000000000001e-01
	1.624342129464378e-05
	2.543240875861030e-01
	3.089442302728487e-04
	3.638197099637443e-05
	9.414552258510342e-06
	1.800568740187525e-14
	1.394983365537468e-14
	1.066265241010911e-17
	4.045191094090463e-15
	8.193656358406466e-18
	9.774682695277863e-15
	6.193611922506503e-15
	5.740683292795118e-15
	3.979097730555080e-15
	3.149672055551986e-15

 29	2.900000000000001e-01
	1.954183907259409e-05
	2.543240875861030e-01
	3.511071016936944e-04
	4.136962140651686e-05
	1.087188067375367e-05
	1.928434452440913e-14
	1.540021293354355e-14
	1.271945882725055e-17
	3.871412132038331e-15
	9.825676651380023e-18
	1.073480061607458e-14
	6.198130203627006e-15
	5.747627611513954e-15
	3.979097730555080e-15
	3.149672055551986e-15

 30	3.000000000000001e-01
	2.327277037805713e-05
	2.543240875861030e-01
	3.954325072632011e-04
	4.664233243630060e-05
	1.240319810799742e-05
	2.049963642279422e-14
	1.677674834327280e-14
	1.498723275689712e-17
	3.707900846764524e-15
	1.163751693758222e-17
	1.163622796408951e-14
	6.202599579029998e-15
	5.754566100222784e-15
	3.979097730555080e-15
	3.149672055551986e-15

 31	3.100000000000001e-01
	2.745742401841211e-05
	2.543240875861030e-01
	4.418383028388694e-04
	5.219245184966699e-05
	1.399825995971866e-05
	2.163996613520285e-14
	1.806662294843872e-14
	1.745838335680834e-17
	3.555884803407319e-15
	1.362428222882414e-17
	1.247226833960420e-14
	6.207020059459586e-15
	5.761497995735857e-15
	3.979097730555080e-15
	3.149672055551986e-15

 32	3.200000000000001e-01
	3.211620222880032e-05
	2.543240875861030e-01
	4.902435272323943e-04
	5.801073684013053e-05
	1.564882771687782e-05
	2.269977269654847e-14
	1.926383471207489e-14
	2.012435705159615e-17
	3.415813627421980e-15
	1.577979864716456e-17
	1.324081213807321e-14
	6.211391673478028e-15
	5.768422527411156e-15
	3.979097730555080e-15
	3.149672055551986e-15

 33	3.300000000000001e-01
	3.726866882430734e-05
	2.543240875861030e-01
	5.405606293344546e-04
	6.408594361204796e-05
	1.734858644077205e-05
	2.367808623819670e-14
	2.036754840500271e-14
	2.297649734756170e-17
	3.287561335846430e-15
	1.809737391388942e-17
	1.394303484152622e-14
	6.215714467155596e-15
	5.775338917536703e-15
	3.979097730555080e-15
	3.149672055551986e-15

 34	3.400000000000001e-01
	4.293346589374626e-05
	2.543240875861030e-01
	5.926926661970668e-04
	7.040498444479611e-05
	1.909290100189093e-05
	2.457713492415009e-14
	2.138051342412280e-14
	2.600669267287303e-17
	3.170614807354412e-15
	2.057041135650893e-17
	1.458223667186516e-14
	6.219988503745634e-15
	5.782246381733621e-15
	3.979097730555080e-15
	3.149672055551986e-15

 35	3.500000000000001e-01
	4.912821972221326e-05
	2.543240875861030e-01
	6.465336473867010e-04
	7.695336183798401e-05
	2.087851535825634e-05
	2.540117603287830e-14
	2.230774019762320e-14
	2.920783240803543e-17
	3.064228002847068e-15
	2.319287313973082e-17
	1.516292752251240e-14
	6.224213863345734e-15
	5.789144129375750e-15
	3.979097730555080e-15
	3.149672055551986e-15

 36	3.600000000000002e-01
	5.586945900826125e-05
	2.543240875861030e-01
	7.019704252174261e-04
	8.371567082899692e-05
	2.270325753019389e-05
	2.615560132524579e-14
	2.315548989304436e-14
	3.257410827226791e-17
	2.967537323929166e-15
	2.595961006693290e-17
	1.569016634369343e-14
	6.228390642545934e-15
	5.796031364025555e-15
	3.979097730555080e-15
	3.149672055551986e-15

 37	3.700000000000002e-01
	6.317255503825917e-05
	2.543240875861030e-01
	7.588850624593832e-04
	9.067605411241709e-05
	2.456578100634240e-05
	2.684629893581847e-14
	2.393055584254766e-14
	3.610120080874015e-17
	2.879641892462068e-15
	2.886658400811783e-17
	1.616911839789606e-14
	6.232518954064866e-15
	5.802907283886001e-15
	3.979097730555080e-15
	3.149672055551986e-15

 38	3.800000000000002e-01
	7.105168533179596e-05
	2.543240875861030e-01
	8.171570942365250e-04
	9.781856392234894e-05
	2.646535298309283e-05
	2.747922572299275e-14
	2.463978359611304e-14
	3.978638598066859e-17
	2.799655740899041e-15
	3.191100971080102e-17
	1.660477991029880e-14
	6.236598926374768e-15
	5.809771082268027e-15
	3.979097730555080e-15
	3.149672055551986e-15

 39	3.900000000000002e-01
	7.951981823462392e-05
	2.543240875861030e-01
	8.766654334631624e-04
	1.051274250841382e-04
	2.840168874272960e-05
	2.806013880673522e-14
	2.528977102706259e-14
	4.362858957923754e-17
	2.726739190093398e-15
	3.509143943883595e-17
	1.700182220352920e-14
	6.240630703316293e-15
	5.816621948073234e-15
	3.979097730555080e-15
	3.149672055551986e-15

 40	4.000000000000002e-01
	8.858871448323973e-05
	2.543240875861030e-01
	9.372898596921000e-04
	1.125872124240111e-04
	3.037482645523352e-05
	2.859444071682428e-14
	2.588669663401135e-14
	4.762840981849120e-17
	2.660115672994446e-15
	3.840780916023053e-17
	1.736451634254598e-14
	6.244614443704038e-15
	5.823459066291312e-15
	3.979097730555080e-15
	3.149672055551986e-15

 41	4.100000000000002e-01
	9.826894168690123e-05
	2.543240875861030e-01
	9.989121231315978e-04
	1.201829615293221e-04
	3.238503515780146e-05
	2.908710189835540e-14
	2.643623490517802e-14
	5.178812225923298e-17
	2.599078870918150e-15
	4.186146029146642e-17
	1.769670925733382e-14
	6.248550320923711e-15
	5.830281618511699e-15
	3.979097730555080e-15
	3.149672055551986e-15

 42	4.200000000000002e-01
	1.085698981948484e-04
	2.543240875861030e-01
	1.061416729584853e-03
	1.279002311874482e-04
	3.443274889075336e-05
	2.954263363477015e-14
	2.694352824685560e-14
	5.611167635431001e-17
	2.542993711560248e-15
	4.545514693967307e-17
	1.800183095692853e-14
	6.252438522521846e-15
	5.837088783448916e-15
	3.979097730555080e-15
	3.149672055551986e-15

 43	4.300000000000002e-01
	1.194998435125150e-04
	2.543240875861030e-01
	1.124691476542813e-03
	1.357251326442755e-04
	3.651852092520938e-05
	2.996509229428907e-14
	2.741319390500985e-14
	6.060468934804452e-17
	2.491293699931176e-15
	4.919303535252351e-17
	1.828291914730867e-14
	6.256279249788951e-15
	5.843879737480991e-15
	3.979097730555080e-15
	3.149672055551986e-15

 44	4.400000000000002e-01
	1.310659330977754e-04
	2.543240875861030e-01
	1.188627802471556e-03
	1.436443371572065e-04
	3.864299316407462e-05
	3.035810185307824e-14
	2.784935117291792e-14
	6.527444076114195e-17
	2.443476239399176e-15
	5.308069985416107e-17
	1.854265241334101e-14
	6.260072717337004e-15
	5.850653655200296e-15
	3.979097730555080e-15
	3.149672055551986e-15

 45	4.500000000000002e-01
	1.432742559296690e-04
	2.543240875861030e-01
	1.253120999343897e-03
	1.516450700587565e-04
	4.080687687901606e-05
	3.072488606044236e-14
	2.825565917521963e-14
	7.012986899978942e-17
	2.399097016222945e-15
	5.712511779058300e-17
	1.878338647459832e-14
	6.263819152672161e-15
	5.857409709976122e-15
	3.979097730555080e-15
	3.149672055551986e-15

 46	4.600000000000002e-01
	1.561298736828866e-04
	2.543240875861030e-01
	1.318070326762596e-03
	1.597150969681590e-04
	4.301094186515910e-05
	3.106830471027625e-14
	2.863535902239667e-14
	7.518157052639082e-17
	2.357764117353192e-15
	6.133466478715273e-17
	1.900719026034196e-14
	6.267518795763503e-15
	5.864147074528217e-15
	3.979097730555080e-15
	3.149672055551986e-15

 47	4.700000000000003e-01
	1.696368606736135e-04
	2.543240875861030e-01
	1.383379056143656e-03
	1.678427058812266e-04
	4.525601183344374e-05
	3.139089059803522e-14
	2.899131651644782e-14
	8.044180134757088e-17
	2.319132280239828e-15
	6.571911080372765e-17
	1.921587999773442e-14
	6.271171898608702e-15
	5.870864921510547e-15
	3.979097730555080e-15
	3.149672055551986e-15

 48	4.800000000000003e-01
	1.837983439865258e-04
	2.543240875861030e-01
	1.448954465677274e-03
	1.760166875199358e-04
	4.754296443355316e-05
	3.169488515171324e-14
	2.932606317556131e-14
	8.592448018409358e-17
	2.282897495967830e-15
	7.028961695142428e-17
	1.941105042010520e-14
	6.274778724797384e-15
	5.877562424104386e-15
	3.979097730555080e-15
	3.149672055551986e-15

 49	4.900000000000003e-01
	1.986165433692949e-04
	2.543240875861030e-01
	1.514707800951223e-03
	1.842263154001487e-04
	4.987273473545000e-05
	3.198227164324838e-14
	2.964183437687599e-14
	9.164519249434751e-17
	2.248792073878042e-15
	7.505873272539162e-17
	1.959410275929099e-14
	6.278339549073007e-15
	5.884238756619904e-15
	3.979097730555080e-15
	3.149672055551986e-15

 50	5.000000000000002e-01
	2.140928106072681e-04
	2.543240875861030e-01
	1.580554211840838e-03
	1.924613264607858e-04
	5.224632132325188e-05
	3.225480547036329e-14
	2.994060407013819e-14
	9.762119446258135e-17
	2.216580205762523e-15
	8.004039314716830e-17
	1.976626951263835e-14
	6.281854656894005e-15
	5.890893095105315e-15
	3.979097730555080e-15
	3.149672055551986e-15

 51	5.100000000000002e-01
	2.302276681807070e-04
	2.543240875861030e-01
	1.646412673174743e-03
	2.007119026977648e-04
	5.466479439658165e-05
	3.251404135904717e-14
	3.022411591693701e-14
	1.038714160896032e-16
	2.186054026020557e-15
	8.524991525210655e-17
	1.992863615533043e-14
	6.285324343994961e-15
	5.897524617962639e-15
	3.979097730555080e-15
	3.149672055551986e-15

 52	5.200000000000002e-01
	2.470208470703510e-04
	2.543240875861030e-01
