Title: ** sch_path: /home/designer/shared/amaru/analog/tb/tb_nmos_lv_vds.sch
Date: Wed Sep  3 23:41:04  2025
Command: ngspice-44.2, Build Sun May  4 23:56:50 UTC 2025
Plotname: DC transfer characteristic
Flags: real
No. Variables: 3
No. Points: 151
Variables:
	0	v(v-sweep)	voltage
	1	i(ids)	current
	2	ro	notype
Values:
 0	0.000000000000000e+00
	0.000000000000000e+00
	4.902618498423614e+02

 1	1.000000000000000e-02
	2.017690089559298e-05
	5.010889020866935e+02

 2	2.000000000000000e-02
	3.991307713404477e-05
	5.124555465901186e+02

 3	3.000000000000000e-02
	5.920467634476136e-05
	5.244520521650259e+02

 4	4.000000000000000e-02
	7.804811715807871e-05
	5.371230093523060e+02

 5	5.000000000000000e-02
	9.644009477175662e-05
	5.505174710714416e+02

 6	6.000000000000000e-02
	1.143775727175455e-04
	5.646899009992417e+02

 7	7.000000000000001e-02
	1.318577637695715e-04
	5.797012393178684e+02

 8	8.000000000000000e-02
	1.488781027207828e-04
	5.956201204689581e+02

 9	9.000000000000000e-02
	1.654362130406490e-04
	6.125242969589439e+02

 10	9.999999999999999e-02
	1.815298686985503e-04
	6.305023355341830e+02

 11	1.100000000000000e-01
	1.971569520019969e-04
	6.496556591941545e+02

 12	1.200000000000000e-01
	2.123154082639385e-04
	6.701010140130181e+02

 13	1.300000000000000e-01
	2.270031984361374e-04
	6.919734465695109e+02

 14	1.400000000000000e-01
	2.412182514281537e-04
	7.154298873983743e+02

 15	1.500000000000000e-01
	2.549584185803909e-04
	7.406534483759402e+02

 16	1.600000000000000e-01
	2.682214336098539e-04
	7.678585570241989e+02

 17	1.700000000000000e-01
	2.810048822383712e-04
	7.972970671834410e+02

 18	1.800000000000000e-01
	2.933061866124614e-04
	8.292655019323971e+02

 19	1.900000000000000e-01
	3.051226104609911e-04
	8.641135988190670e+02

 20	2.000000000000000e-01
	3.164512916395468e-04
	9.022543353549245e+02

 21	2.100000000000000e-01
	3.272893091581301e-04
	9.441756085975958e+02

 22	2.200000000000001e-01
	3.376337918205316e-04
	9.904537172838913e+02

 23	2.300000000000001e-01
	3.474820750097701e-04
	1.041768734832144e+03

 24	2.400000000000001e-01
	3.568319106844295e-04
	1.098921747106795e+03

 25	2.500000000000001e-01
	3.656817330406129e-04
	1.162853733276773e+03

 26	2.600000000000001e-01
	3.740309783123439e-04
	1.234665556390298e+03

 27	2.700000000000001e-01
	3.818804517110135e-04
	1.315638060190621e+03

 28	2.800000000000001e-01
	3.892327276423247e-04
	1.407250595414851e+03

 29	2.900000000000001e-01
	3.960925615265393e-04
	1.511195386387203e+03

 30	3.000000000000001e-01
	4.024672836634450e-04
	1.629383992069311e+03

 31	3.100000000000001e-01
	4.083671389725838e-04
	1.763940777179544e+03

 32	3.200000000000001e-01
	4.138055328035205e-04
	1.917176970042922e+03

 33	3.300000000000001e-01
	4.187991441095704e-04
	2.091537904466488e+03

 34	3.400000000000001e-01
	4.233678744456634e-04
	2.289516004445918e+03

 35	3.500000000000001e-01
	4.275346148209185e-04
	2.513523753889786e+03

 36	3.600000000000002e-01
	4.313248312753130e-04
	2.765725125288760e+03

 37	3.700000000000002e-01
	4.347659914378959e-04
	3.047831245201246e+03

 38	3.800000000000002e-01
	4.378868743777616e-04
	3.360876140874344e+03

 39	3.900000000000002e-01
	4.407168206745832e-04
	3.704999555023278e+03

 40	4.000000000000002e-01
	4.432849856873524e-04
	4.079272786528996e+03

 41	4.100000000000002e-01
	4.456196553332621e-04
	4.481606127083494e+03

 42	4.200000000000002e-01
	4.477476714818792e-04
	4.908769212094178e+03

 43	4.300000000000002e-01
	4.496939964024499e-04
	5.356537795836783e+03

 44	4.400000000000002e-01
	4.514814265233436e-04
	5.819955647276659e+03

 45	4.500000000000002e-01
	4.531304487076077e-04
	6.293675678456991e+03

 46	4.600000000000002e-01
	4.546592197592517e-04
	6.772328163637610e+03

 47	4.700000000000003e-01
	4.560836428701980e-04
	7.250861231831901e+03

 48	4.800000000000003e-01
	4.574175127896297e-04
	7.724809714272888e+03

 49	4.900000000000003e-01
	4.586727034088733e-04
	8.190468017738784e+03

 50	5.000000000000002e-01
	4.598593756913202e-04
	8.644963919973865e+03

 51	5.100000000000002e-01
	4.609861890619240e-04
	9.086247031174196e+03

 52	5.200000000000002e-01
	4.620605044886533e-04
	9.513015116949391e+03

 53	5.300000000000002e-01
	4.630885719294090e-04
	9.924603626223266e+03

 54	5.400000000000003e-01
	4.640756983193827e-04
	1.032086067534467e+04

 55	5.500000000000003e-01
	4.650263948134808e-04
	1.070202402911312e+04

 56	5.600000000000003e-01
	4.659445036916743e-04
	1.106861046646147e+04

 57	5.700000000000003e-01
	4.668333063549612e-04
	1.142132265495880e+04

 58	5.800000000000003e-01
	4.676956143645977e-04
	1.176097482480285e+04

 59	5.900000000000003e-01
	4.685338456638135e-04
	1.208843612850263e+04

 60	6.000000000000003e-01
	4.693500880936554e-04
	1.240458932546473e+04

 61	6.100000000000003e-01
	4.701461521638718e-04
	1.271030199346494e+04

 62	6.200000000000003e-01
	4.709236148289197e-04
	1.300640752720477e+04

 63	6.300000000000003e-01
	4.716838557886557e-04
	1.329369350074449e+04

 64	6.400000000000003e-01
	4.724280876076008e-04
	1.357289538569755e+04

 65	6.500000000000004e-01
	4.731573807390562e-04
	1.384469403747919e+04

 66	6.600000000000004e-01
	4.738726843567856e-04
	1.410971573854365e+04

 67	6.700000000000004e-01
	4.745748437390630e-04
	1.436853390154273e+04

 68	6.800000000000004e-01
	4.752646148165698e-04
	1.462167178668520e+04

 69	6.900000000000004e-01
	4.759426763844526e-04
	1.486960577845471e+04

 70	7.000000000000004e-01
	4.766096403873875e-04
	1.511276890972211e+04

 71	7.100000000000004e-01
	4.772660606113585e-04
	1.535155442723305e+04

 72	7.200000000000004e-01
	4.779124400546655e-04
	1.558631926558987e+04

 73	7.300000000000004e-01
	4.785492372009818e-04
	1.581738734912421e+04

 74	7.400000000000004e-01
	4.791768713768907e-04
	1.604505267825727e+04

 75	7.500000000000004e-01
	4.797957273435229e-04
	1.626958217970936e+04

 76	7.600000000000005e-01
	4.804061592454472e-04
	1.649121831593609e+04

 77	7.700000000000005e-01
	4.810084940182975e-04
	1.671018146029421e+04

 78	7.800000000000005e-01
	4.816030343390853e-04
	1.692667204848081e+04

 79	7.900000000000005e-01
	4.821900611888977e-04
	1.714087252185490e+04

 80	8.000000000000005e-01
	4.827698360858750e-04
	1.735294907888885e+04

 81	8.100000000000005e-01
	4.833426030369188e-04
	1.756305325069539e+04

 82	8.200000000000005e-01
	4.839085902486348e-04
	1.777132331810620e+04

 83	8.300000000000005e-01
	4.844680116315407e-04
	1.797788558492170e+04

 84	8.400000000000005e-01
	4.850210681262765e-04
	1.818285552133539e+04

 85	8.500000000000005e-01
	4.855679488760803e-04
	1.838633879179356e+04

 86	8.600000000000005e-01
	4.861088322660805e-04
	1.858843217867401e+04

 87	8.700000000000006e-01
	4.866438868469515e-04
	1.878922441242449e+04

 88	8.800000000000006e-01
	4.871732721578503e-04
	1.898879691859771e+04

 89	8.900000000000006e-01
	4.876971394614135e-04
	1.918722449005480e+04

 90	9.000000000000006e-01
	4.882156324017911e-04
	1.938457589233879e+04

 91	9.100000000000006e-01
	4.887288875951400e-04
	1.958091440929398e+04

 92	9.200000000000006e-01
	4.892370351607198e-04
	1.977629833512579e+04

 93	9.300000000000006e-01
	4.897401991996214e-04
	1.997078141855216e+04

 94	9.400000000000006e-01
	4.902384982272286e-04
	2.016441326378332e+04

 95	9.500000000000006e-01
	4.907320455647186e-04
	2.035723969340223e+04

 96	9.600000000000006e-01
	4.912209496941867e-04
	2.054930307628933e+04

 97	9.700000000000006e-01
	4.917053145814706e-04
	2.074064262437452e+04

 98	9.800000000000006e-01
	4.921852399701541e-04
	2.093129466202523e+04

 99	9.900000000000007e-01
	4.926608216498549e-04
	2.112129286996811e+04

 100	1.000000000000001e+00
	4.931321517015111e-04
	2.131066850654528e+04

 101	1.010000000000001e+00
	4.935993187220541e-04
	2.149945060892090e+04

 102	1.020000000000001e+00
	4.940624080305590e-04
	2.168766617600764e+04

 103	1.030000000000001e+00
	4.945215018577446e-04
	2.187534033441622e+04

 104	1.040000000000001e+00
	4.949766795204765e-04
	2.206249648990026e+04

 105	1.050000000000001e+00
	4.954280175827060e-04
	2.224915646543750e+04

 106	1.060000000000001e+00
	4.958755900041647e-04
	2.243534062657573e+04

 107	1.070000000000001e+00
	4.963194682779680e-04
	2.262106799620212e+04

 108	1.080000000000001e+00
	4.967597215581372e-04
	2.280635635930391e+04

 109	1.090000000000001e+00
	4.971964167779787e-04
	2.299122235869533e+04

 110	1.100000000000001e+00
	4.976296187601203e-04
	2.317568158236968e+04

 111	1.110000000000001e+00
	4.980593903189689e-04
	2.335974864337772e+04

 112	1.120000000000001e+00
	4.984857923562206e-04
	2.354343725337488e+04

 113	1.130000000000001e+00
	4.989088839500288e-04
	2.372676028973549e+04

 114	1.140000000000001e+00
	4.993287224383630e-04
	2.390972985699951e+04

 115	1.150000000000001e+00
	4.997453634970424e-04
	2.409235734346434e+04

 116	1.160000000000001e+00
	5.001588612128663e-04
	2.427465347305412e+04

 117	1.170000000000001e+00
	5.005692681522499e-04
	2.445662835276841e+04

 118	1.180000000000001e+00
	5.009766354257102e-04
	2.463829151713239e+04

 119	1.190000000000001e+00
	5.013810127485054e-04
	2.481965196799254e+04

 120	1.200000000000001e+00
	5.017824484977787e-04
	2.500071821166188e+04

 121	1.210000000000001e+00
	5.021809897663925e-04
	2.518149829354746e+04

 122	1.220000000000001e+00
	5.025766824137616e-04
	2.536199982918823e+04

 123	1.230000000000001e+00
	5.029695711138690e-04
	2.554223003379938e+04

 124	1.240000000000001e+00
	5.033596994006705e-04
	2.572219574897104e+04

 125	1.250000000000001e+00
	5.037471097110862e-04
	2.590190346753400e+04

 126	1.260000000000001e+00
	5.041318434257252e-04
	2.608135935625984e+04

 127	1.270000000000001e+00
	5.045139409075284e-04
	2.626056927743384e+04

 128	1.280000000000001e+00
	5.048934415384206e-04
	2.643953880860119e+04

 129	1.290000000000001e+00
	5.052703837541598e-04
	2.661827326017046e+04

 130	1.300000000000001e+00
	5.056448050774645e-04
	2.679677769288219e+04

 131	1.310000000000001e+00
	5.060167421495318e-04
	2.697505693299360e+04

 132	1.320000000000001e+00
	5.063862307600749e-04
	2.715311558728750e+04

 133	1.330000000000001e+00
	5.067533058759192e-04
	2.733095805611357e+04

 134	1.340000000000001e+00
	5.071180016683226e-04
	2.750858854594453e+04

 135	1.350000000000001e+00
	5.074803515390071e-04
	2.768601108130886e+04

 136	1.360000000000001e+00
	5.078403881450622e-04
	2.786322951527388e+04

 137	1.370000000000001e+00
	5.081981434227167e-04
	2.804024753989153e+04

 138	1.380000000000001e+00
	5.085536486100972e-04
	2.821706869492704e+04

 139	1.390000000000001e+00
	5.089069342690031e-04
	2.839369637740083e+04

 140	1.400000000000001e+00
	5.092580303057442e-04
	2.857013384939686e+04

 141	1.410000000000001e+00
	5.096069659911304e-04
	2.874638424521874e+04

 142	1.420000000000001e+00
	5.099537699796243e-04
	2.892245057908587e+04

 143	1.430000000000001e+00
	5.102984703277118e-04
	2.909833575181749e+04

 144	1.440000000000001e+00
	5.106410945115350e-04
	2.927404255643116e+04

 145	1.450000000000001e+00
	5.109816694438382e-04
	2.944957368439783e+04

 146	1.460000000000001e+00
	5.113202214902253e-04
	2.962493173081455e+04

 147	1.470000000000001e+00
	5.116567764848174e-04
	2.980011919967774e+04

 148	1.480000000000001e+00
	5.119913597452768e-04
	2.997513850887857e+04

 149	1.490000000000001e+00
	5.123239960872915e-04
	3.014999199360520e+04

 150	1.500000000000001e+00
	5.126547098385121e-04
	3.032577869671053e+04

Title: ** sch_path: /home/designer/shared/amaru/analog/tb/tb_nmos_lv_vds.sch
Date: Wed Sep  3 23:41:04  2025
Command: ngspice-44.2, Build Sun May  4 23:56:50 UTC 2025
Plotname: DC transfer characteristic
Flags: real
No. Variables: 3
No. Points: 151
Variables:
	0	v(v-sweep)	voltage
	1	i(ids)	current
	2	ro	notype
Values:
 0	0.000000000000000e+00
	0.000000000000000e+00
	8.890315637685170e+01

 1	1.000000000000000e-02
	1.113966946565990e-04
	9.065242611423655e+01

 2	2.000000000000000e-02
	2.206228874095085e-04
	9.248189047778450e+01

 3	3.000000000000000e-02
	3.276552496739652e-04
	9.440689901063809e+01

 4	4.000000000000000e-02
	4.324718116893574e-04
	9.643351286964636e+01

 5	5.000000000000000e-02
	5.350520291217380e-04
	9.856831822273629e+01

 6	6.000000000000000e-02
	6.353767649300701e-04
	1.008185576370146e+02

 7	7.000000000000001e-02
	7.334282057777030e-04
	1.031922691196092e+02

 8	8.000000000000000e-02
	8.291897333881832e-04
	1.056984344621060e+02

 9	9.000000000000000e-02
	9.226457670573849e-04
	1.083471428404850e+02

 10	9.999999999999999e-02
	1.013781587641739e-03
	1.111497780077898e+02

 11	1.100000000000000e-01
	1.102583148476161e-03
	1.141192381997432e+02

 12	1.200000000000000e-01
	1.189036876018217e-03
	1.172701979014027e+02

 13	1.300000000000000e-01
	1.273129462526176e-03
	1.206194206190996e+02

 14	1.400000000000000e-01
	1.354847654227453e-03
	1.241861321608190e+02

 15	1.500000000000000e-01
	1.434178040592045e-03
	1.279924647095901e+02

 16	1.600000000000000e-01
	1.511106853121538e-03
	1.320639831383261e+02

 17	1.700000000000000e-01
	1.585619785151965e-03
	1.364303064832620e+02

 18	1.800000000000000e-01
	1.657701847412295e-03
	1.411258391183841e+02

 19	1.900000000000000e-01
	1.727337277320235e-03
	1.461906278427991e+02

 20	2.000000000000000e-01
	1.794509523082901e-03
	1.516713626005615e+02

 21	2.100000000000000e-01
	1.859201326387108e-03
	1.576225396141298e+02

 22	2.200000000000001e-01
	1.921394929503590e-03
	1.641078058901981e+02

 23	2.300000000000001e-01
	1.981072433562727e-03
	1.712015026954691e+02

 24	2.400000000000001e-01
	2.038216334018805e-03
	1.789904217422565e+02

 25	2.500000000000001e-01
	2.092810256208901e-03
	1.875757801053324e+02

 26	2.600000000000001e-01
	2.144839907642058e-03
	1.970754064373031e+02

 27	2.700000000000001e-01
	2.194294253433906e-03
	2.076261093811369e+02

 28	2.800000000000001e-01
	2.241166906494048e-03
	2.193861660895612e+02

 29	2.900000000000001e-01
	2.285457704423041e-03
	2.325378208449018e+02

 30	3.000000000000001e-01
	2.327174421002149e-03
	2.472896172364981e+02

 31	3.100000000000001e-01
	2.366334533072393e-03
	2.638782993246846e+02

 32	3.200000000000001e-01
	2.402966936154717e-03
	2.825699072794669e+02

 33	3.300000000000001e-01
	2.437113478334316e-03
	3.036595657610862e+02

 34	3.400000000000001e-01
	2.468830166742801e-03
	3.274693320853455e+02

 35	3.500000000000001e-01
	2.498187899785139e-03
	3.543433620902184e+02

 36	3.600000000000002e-01
	2.525272595583638e-03
	3.846396069928338e+02

 37	3.700000000000002e-01
	2.550184625125940e-03
	4.187173332621248e+02

 38	3.800000000000002e-01
	2.573037515760658e-03
	4.569200279718822e+02

 39	3.900000000000002e-01
	2.593955960973864e-03
	4.995537737133238e+02

 40	4.000000000000002e-01
	2.613073245750914e-03
	5.468619690783848e+02

 41	4.100000000000002e-01
	2.630528260988995e-03
	5.989982720770065e+02

 42	4.200000000000002e-01
	2.646462323703761e-03
	6.560006813594555e+02

 43	4.300000000000002e-01
	2.661016034200683e-03
	7.177704587082862e+02

 44	4.400000000000002e-01
	2.674326384919087e-03
	7.840597976672465e+02

 45	4.500000000000002e-01
	2.686524292702783e-03
	8.544714866586409e+02

 46	4.600000000000002e-01
	2.697732666243007e-03
	9.284722440923370e+02

 47	4.700000000000003e-01
	2.708065055097411e-03
	1.005419173672209e+03

 48	4.800000000000003e-01
	2.717624866952639e-03
	1.084596440976972e+03

 49	4.900000000000003e-01
	2.726505093478861e-03
	1.165257458459282e+03

 50	5.000000000000002e-01
	2.734788455870098e-03
	1.246667094104130e+03

 51	5.100000000000002e-01
	2.742547868727030e-03
	1.328138852778642e+03

 52	5.200000000000002e-01
	2.749847122332688e-03
	1.409063391489502e+03

 53	5.300000000000002e-01
	2.756741694299957e-03
	1.488926628263698e+03

 54	5.400000000000003e-01
	2.763279617675539e-03
	1.567317548067318e+03

 55	5.500000000000003e-01
	2.769502350252966e-03
	1.643927197904394e+03

 56	5.600000000000003e-01
	2.775445606549922e-03
	1.718541125602837e+03

 57	5.700000000000003e-01
	2.781140128192661e-03
	1.791027690141679e+03

 58	5.800000000000003e-01
	2.786612379743930e-03
	1.861324418842755e+03

 59	5.900000000000003e-01
	2.791885165327260e-03
	1.929424106134012e+03

 60	6.000000000000003e-01
	2.796978167097999e-03
	1.995361808271133e+03

 61	6.100000000000003e-01
	2.801908410192976e-03
	2.059203399538741e+03

 62	6.200000000000003e-01
	2.806690660776127e-03
	2.121035972189869e+03

 63	6.300000000000003e-01
	2.811337764651001e-03
	2.180960096469958e+03

 64	6.400000000000003e-01
	2.815860934011466e-03
	2.239083795054614e+03

 65	6.500000000000004e-01
	2.820269989538776e-03
	2.295518004534359e+03

 66	6.600000000000004e-01
	2.824573564433224e-03
	2.350373270245051e+03

 67	6.700000000000004e-01
	2.828779276235146e-03
	2.403757428534470e+03

 68	6.800000000000004e-01
	2.832893871533510e-03
	2.455774056695024e+03

 69	6.900000000000004e-01
	2.836923347936480e-03
	2.506521504561857e+03

 70	7.000000000000004e-01
	2.840873057015701e-03
	2.556092356166058e+03

 71	7.100000000000004e-01
	2.844747791349784e-03
	2.604573201704641e+03

 72	7.200000000000004e-01
	2.848551858282223e-03
	2.652044627453411e+03

 73	7.300000000000004e-01
	2.852289142574784e-03
	2.698581353904846e+03

 74	7.400000000000004e-01
	2.855963159768858e-03
	2.744252470361565e+03

 75	7.500000000000004e-01
	2.859577101760756e-03
	2.789121728231258e+03

 76	7.600000000000005e-01
	2.863133875839642e-03
	2.833247866259045e+03

 77	7.700000000000005e-01
	2.866636138224942e-03
	2.876684948543578e+03

 78	7.800000000000005e-01
	2.870086322964631e-03
	2.919482702562334e+03

 79	7.900000000000005e-01
	2.873486666910194e-03
	2.961686848491374e+03

 80	8.000000000000005e-01
	2.876839231365527e-03
	3.003339414444631e+03

 81	8.100000000000005e-01
	2.880145920907198e-03
	3.044479034349212e+03

 82	8.200000000000005e-01
	2.883408499793507e-03
	3.085141226742927e+03

 83	8.300000000000005e-01
	2.886628606311236e-03
	3.125358654038336e+03

 84	8.400000000000005e-01
	2.889807765354328e-03
	3.165161362228738e+03

 85	8.500000000000005e-01
	2.892947399481994e-03
	3.204577001706170e+03

 86	8.600000000000005e-01
	2.896048838665830e-03
	3.243631030101913e+03

 87	8.700000000000006e-01
	2.899113328903187e-03
	3.282346898169237e+03

 88	8.800000000000006e-01
	2.902142039847933e-03
	3.320746219878571e+03

 89	8.900000000000006e-01
	2.905136071586828e-03
	3.358848927831574e+03

 90	9.000000000000006e-01
	2.908096460671770e-03
	3.396673415178162e+03

 91	9.100000000000006e-01
	2.911024185501645e-03
	3.434236665191756e+03

 92	9.200000000000006e-01
	2.913920171134917e-03
	3.471554369394918e+03

 93	9.300000000000006e-01
	2.916785293602477e-03
	3.508641035377217e+03

 94	9.400000000000006e-01
	2.919620383780879e-03
	3.545510085114604e+03

 95	9.500000000000006e-01
	2.922426230878038e-03
	3.582173944604147e+03

 96	9.600000000000006e-01
	2.925203585576572e-03
	3.618644125727648e+03

 97	9.700000000000006e-01
	2.927953162873866e-03
	3.654931300913674e+03

 98	9.800000000000006e-01
	2.930675644653305e-03
	3.691045371256463e+03

 99	9.900000000000007e-01
	2.933371682016369e-03
	3.726995528778634e+03

 100	1.000000000000001e+00
	2.936041897401817e-03
	3.762790313280869e+03

 101	1.010000000000001e+00
	2.938686886514852e-03
	3.798437664256320e+03

 102	1.020000000000001e+00
	2.941307220086510e-03
	3.833944968417037e+03

 103	1.030000000000001e+00
	2.943903445480814e-03
	3.869319103129133e+03

 104	1.040000000000001e+00
	2.946476088165606e-03
	3.904566476150273e+03

 105	1.050000000000001e+00
	2.949025653060622e-03
	3.939693062023105e+03

 106	1.060000000000001e+00
	2.951552625775297e-03
	3.974704435399922e+03

 107	1.070000000000001e+00
	2.954057473746928e-03
	4.009605801650653e+03

 108	1.080000000000001e+00
	2.956540647288975e-03
	4.044402024812374e+03

 109	1.090000000000001e+00
	2.959002580558096e-03
	4.079097653275697e+03

 110	1.100000000000001e+00
	2.961443692447489e-03
	4.113696943465829e+03

 111	1.110000000000001e+00
	2.963864387413306e-03
	4.148203881407563e+03

 112	1.120000000000001e+00
	2.966265056240537e-03
	4.182622202637772e+03

 113	1.130000000000001e+00
