Title: ** sch_path: /home/designer/shared/amaru/analog/tb/tb_nmos_lv_vds.sch
Date: Wed Sep  3 23:14:36  2025
Command: ngspice-44.2, Build Sun May  4 23:56:50 UTC 2025
Plotname: DC transfer characteristic
Flags: real
No. Variables: 3
No. Points: 151
Variables:
	0	v(v-sweep)	voltage
	1	i(ids)	current
	2	ro	notype
Values:
 0	0.000000000000000e+00
	0.000000000000000e+00
	1.519984026124708e+02

 1	1.000000000000000e-02
	6.420768818049991e-05
	1.596801000059026e+02

 2	2.000000000000000e-02
	1.252504225589832e-04
	1.684180464366473e+02

 3	3.000000000000000e-02
	1.829598078206197e-04
	1.786090304446997e+02

 4	4.000000000000000e-02
	2.372268436290944e-04
	1.904030311850076e+02

 5	5.000000000000000e-02
	2.880001523756743e-04
	2.039663372641701e+02

 6	6.000000000000000e-02
	3.352822397707464e-04
	2.194810941118043e+02

 7	7.000000000000001e-02
	3.791241741550260e-04
	2.371441967561200e+02

 8	8.000000000000000e-02
	4.196191127517370e-04
	2.571654353736235e+02

 9	9.000000000000000e-02
	4.568951233144375e-04
	2.797647799353961e+02

 10	9.999999999999999e-02
	4.911077397498117e-04
	3.051686838448420e+02

 11	1.100000000000000e-01
	5.224326475060373e-04
	3.336053055758459e+02

 12	1.200000000000000e-01
	5.510588246568020e-04
	3.652985949056525e+02

 13	1.300000000000000e-01
	5.771823790377599e-04
	4.004612654599082e+02

 14	1.400000000000000e-01
	6.010012328870489e-04
	4.392867747810208e+02

 15	1.500000000000000e-01
	6.227107244107108e-04
	4.819405512657673e+02

 16	1.600000000000000e-01
	6.425001271956355e-04
	5.285508347305170e+02

 17	1.700000000000000e-01
	6.605500365181206e-04
	5.791996203955638e+02

 18	1.800000000000000e-01
	6.770305365670040e-04
	6.339142971985756e+02

 19	1.900000000000000e-01
	6.921000427072616e-04
	6.926606310704948e+02

 20	2.000000000000000e-01
	7.059047053920610e-04
	7.553377435649180e+02

 21	2.100000000000000e-01
	7.185782640994660e-04
	8.217756634803874e+02

 22	2.200000000000001e-01
	7.302422477272719e-04
	8.917358797989388e+02

 23	2.300000000000001e-01
	7.410064297178658e-04
	9.649151071508855e+02

 24	2.400000000000001e-01
	7.509694597397921e-04
	1.040952212451838e+03

 25	2.500000000000001e-01
	7.602196075763310e-04
	1.119437974556025e+03

 26	2.600000000000001e-01
	7.688355679606894e-04
	1.199927095790744e+03

 27	2.700000000000001e-01
	7.768872868629797e-04
	1.281951690184414e+03

 28	2.800000000000001e-01
	7.844367798886700e-04
	1.365035364574088e+03

 29	2.900000000000001e-01
	7.915389219187794e-04
	1.448706997845406e+03

 30	3.000000000000001e-01
	7.982421939784377e-04
	1.532513406429968e+03

 31	3.100000000000001e-01
	8.045893787148414e-04
	1.616030242736157e+03

 32	3.200000000000001e-01
	8.106181999906379e-04
	1.698870679535190e+03

 33	3.300000000000001e-01
	8.163619051589801e-04
	1.780691656196266e+03

 34	3.400000000000001e-01
	8.218497907775134e-04
	1.861197673207295e+03

 35	3.500000000000001e-01
	8.271076740194877e-04
	1.940142297671261e+03

 36	3.600000000000002e-01
	8.321583130049840e-04
	2.017327671533727e+03

 37	3.700000000000002e-01
	8.370217798349274e-04
	2.092602392340184e+03

 38	3.800000000000002e-01
	8.417157903705879e-04
	2.165858166853010e+03

 39	3.900000000000002e-01
	8.462559948477507e-04
	2.237025629316633e+03

 40	4.000000000000002e-01
	8.506562333131704e-04
	2.306069679478449e+03

 41	4.100000000000002e-01
	8.549287596726728e-04
	2.372984641424346e+03

 42	4.200000000000002e-01
	8.590844378834264e-04
	2.437789482682665e+03

 43	4.300000000000002e-01
	8.631329135350444e-04
	2.500523271308503e+03

 44	4.400000000000002e-01
	8.670827637656464e-04
	2.561240991959458e+03

 45	4.500000000000002e-01
	8.709416281631432e-04
	2.620009793355546e+03

 46	4.600000000000002e-01
	8.747163230182571e-04
	2.676905700196206e+03

 47	4.700000000000003e-01
	8.784129410295375e-04
	2.732010792702598e+03

 48	4.800000000000003e-01
	8.820369383150273e-04
	2.785410835489969e+03

 49	4.900000000000003e-01
	8.855932103618645e-04
	2.837193323312444e+03

 50	5.000000000000002e-01
	8.890861583437313e-04
	2.887445902966392e+03

 51	5.100000000000002e-01
	8.925197470562674e-04
	2.936255126892057e+03

 52	5.200000000000002e-01
	8.958975555608286e-04
	2.983705493490505e+03

 53	5.300000000000002e-01
	8.992228214862450e-04
	3.029878730928628e+03

 54	5.400000000000003e-01
	9.024984798142789e-04
	3.074853284393405e+03

 55	5.500000000000003e-01
	9.057271968662058e-04
	3.118703970726148e+03

 56	5.600000000000003e-01
	9.089114001131373e-04
	3.161501768630685e+03

 57	5.700000000000003e-01
	9.120533043504545e-04
	3.203313716945342e+03

 58	5.800000000000003e-01
	9.151549347048949e-04
	3.244202897581829e+03

 59	5.900000000000003e-01
	9.182181468807745e-04
	3.284228483463752e+03

 60	6.000000000000003e-01
	9.212446449977996e-04
	3.323445835190423e+03

 61	6.100000000000003e-01
	9.242359973263059e-04
	3.361906633094353e+03

 62	6.200000000000003e-01
	9.271936501852494e-04
	3.399659033929297e+03

 63	6.300000000000003e-01
	9.301189402333433e-04
	3.436747843534023e+03

 64	6.400000000000003e-01
	9.330131053534918e-04
	3.473214698751724e+03

 65	6.500000000000004e-01
	9.358772943043393e-04
	3.509098253278494e+03

 66	6.600000000000004e-01
	9.387125752903379e-04
	3.544434363364746e+03

 67	6.700000000000004e-01
	9.415199435819560e-04
	3.579256270446455e+03

 68	6.800000000000004e-01
	9.443003283006875e-04
	3.613594778413746e+03

 69	6.900000000000004e-01
	9.470545984689601e-04
	3.647478423971642e+03

 70	7.000000000000004e-01
	9.497835684121459e-04
	3.680933639075578e+03

 71	7.100000000000004e-01
	9.524880025889601e-04
	3.713984904777068e+03

 72	7.200000000000004e-01
	9.551686199168720e-04
	3.746654896150325e+03

 73	7.300000000000004e-01
	9.578260976509179e-04
	3.778964618221330e+03

 74	7.400000000000004e-01
	9.604610748669831e-04
	3.810933533008304e+03

 75	7.500000000000004e-01
	9.630741555944035e-04
	3.842579677822680e+03

 76	7.600000000000005e-01
	9.656659116372990e-04
	3.873919775182792e+03

 77	7.700000000000005e-01
	9.682368851191925e-04
	3.904969334793288e+03

 78	7.800000000000005e-01
	9.707875907813066e-04
	3.935742747836648e+03

 79	7.900000000000005e-01
	9.733185180615370e-04
	3.966253374097595e+03

 80	8.000000000000005e-01
	9.758301329775802e-04
	3.996513622436090e+03

 81	8.100000000000005e-01
	9.783228798351893e-04
	4.026535024920212e+03

 82	8.200000000000005e-01
	9.807971827800084e-04
	4.056328305132659e+03

 83	8.300000000000005e-01
	9.832534472093077e-04
	4.085903441065702e+03

 84	8.400000000000005e-01
	9.856920610580872e-04
	4.115269722963268e+03

 85	8.500000000000005e-01
	9.881133959724227e-04
	4.144435806499599e+03

 86	8.600000000000005e-01
	9.905178083814345e-04
	4.173409761744331e+03

 87	8.700000000000006e-01
	9.929056404779420e-04
	4.202199118103613e+03

 88	8.800000000000006e-01
	9.952772211169799e-04
	4.230810905633163e+03

 89	8.900000000000006e-01
	9.976328666400404e-04
	4.259251693083683e+03

 90	9.000000000000006e-01
	9.999728816322945e-04
	4.287527622758071e+03

 91	9.100000000000006e-01
	1.002297559619239e-03
	4.315644442630361e+03

 92	9.200000000000006e-01
	1.004607183708350e-03
	4.343607535893257e+03

 93	9.300000000000006e-01
	1.006902027180991e-03
	4.371421948035067e+03

 94	9.400000000000006e-01
	1.009182354039137e-03
	4.399092411838882e+03

 95	9.500000000000006e-01
	1.011448419510958e-03
	4.426623370340663e+03

 96	9.600000000000006e-01
	1.013700470519072e-03
	4.454018997938381e+03

 97	9.700000000000006e-01
	1.015938746114696e-03
	4.481283219893901e+03

 98	9.800000000000006e-01
	1.018163477880716e-03
	4.508419730226510e+03

 99	9.900000000000007e-01
	1.020374890306398e-03
	4.535432008210222e+03

 100	1.000000000000001e+00
	1.022573201136140e-03
	4.562323333612405e+03

 101	1.010000000000001e+00
	1.024758621694451e-03
	4.589096800708974e+03

 102	1.020000000000001e+00
	1.026931357189181e-03
	4.615755331225137e+03

 103	1.030000000000001e+00
	1.029091606994755e-03
	4.642301686306182e+03

 104	1.040000000000001e+00
	1.031239564917041e-03
	4.668738477524011e+03

 105	1.050000000000001e+00
	1.033375419441368e-03
	4.695068177041532e+03

 106	1.060000000000001e+00
	1.035499353965003e-03
	4.721293127069681e+03

 107	1.070000000000001e+00
	1.037611547015259e-03
	4.747415548562231e+03

 108	1.080000000000001e+00
	1.039712172454435e-03
	4.773437549245717e+03

 109	1.090000000000001e+00
	1.041801399672525e-03
	4.799361131093327e+03

 110	1.100000000000001e+00
	1.043879393768628e-03
	4.825188197228356e+03

 111	1.110000000000001e+00
	1.045946315721911e-03
	4.850920558319836e+03

 112	1.120000000000001e+00
	1.048002322552877e-03
	4.876559938479319e+03

 113	1.130000000000001e+00
	1.050047567475670e-03
	4.902107980799984e+03

 114	1.140000000000001e+00
	1.052082200041976e-03
	4.927566252445222e+03

 115	1.150000000000001e+00
	1.054106366277224e-03
	4.952936249369275e+03

 116	1.160000000000001e+00
	1.056120208809512e-03
	4.978219400745797e+03

 117	1.170000000000001e+00
	1.058123866991837e-03
	5.003417073019184e+03

 118	1.180000000000001e+00
	1.060117477018043e-03
	5.028530573723221e+03

 119	1.190000000000001e+00
	1.062101172032899e-03
	5.053561155056937e+03

 120	1.200000000000001e+00
	1.064075082236689e-03
	5.078510017105807e+03

 121	1.210000000000001e+00
	1.066039334984755e-03
	5.103378310954200e+03

 122	1.220000000000001e+00
	1.067994054882136e-03
	5.128167141552554e+03

 123	1.230000000000001e+00
	1.069939363873819e-03
	5.152877570340686e+03

 124	1.240000000000001e+00
	1.071875381330705e-03
	5.177510617743949e+03

 125	1.250000000000001e+00
	1.073802224131692e-03
	5.202067265531422e+03

 126	1.260000000000001e+00
	1.075720006741937e-03
	5.226548458945834e+03

 127	1.270000000000001e+00
	1.077628841287756e-03
	5.250955108702632e+03

 128	1.280000000000001e+00
	1.079528837628123e-03
	5.275288092948977e+03

 129	1.290000000000001e+00
	1.081420103423132e-03
	5.299548258982334e+03

 130	1.300000000000001e+00
	1.083302744199518e-03
	5.323736424908438e+03

 131	1.310000000000001e+00
	1.085176863413432e-03
	5.347853381197872e+03

 132	1.320000000000001e+00
	1.087042562510603e-03
	5.371899892152649e+03

 133	1.330000000000001e+00
	1.088899940984036e-03
	5.395876697248451e+03

 134	1.340000000000001e+00
	1.090749096429400e-03
	5.419784512397281e+03

 135	1.350000000000001e+00
	1.092590124598209e-03
	5.443624031173514e+03

 136	1.360000000000001e+00
	1.094423119448894e-03
	5.467395925923004e+03

 137	1.370000000000001e+00
	1.096248173195929e-03
	5.491100848808237e+03

 138	1.380000000000001e+00
	1.098065376357058e-03
	5.514739432797938e+03

 139	1.390000000000001e+00
	1.099874817798764e-03
	5.538312292615025e+03

 140	1.400000000000001e+00
	1.101676584780005e-03
	5.561820025611255e+03

 141	1.410000000000001e+00
	1.103470762994384e-03
	5.585263212581696e+03

 142	1.420000000000001e+00
	1.105257436610756e-03
	5.608642418511044e+03

 143	1.430000000000001e+00
	1.107036688312424e-03
	5.631958193335511e+03

 144	1.440000000000001e+00
	1.108808599334880e-03
	5.655211072681842e+03

 145	1.450000000000001e+00
	1.110573249502264e-03
	5.678401578420584e+03

 146	1.460000000000001e+00
	1.112330717262574e-03
	5.701530219296135e+03

 147	1.470000000000001e+00
	1.114081079721652e-03
	5.724597491575705e+03

 148	1.480000000000001e+00
	1.115824412675995e-03
	5.747603879523002e+03

 149	1.490000000000001e+00
	1.117560790644538e-03
	5.770549855915631e+03

 150	1.500000000000001e+00
	1.119290286899315e-03
	5.793556807156748e+03

Title: ** sch_path: /home/designer/shared/amaru/analog/tb/tb_nmos_lv_vds.sch
Date: Wed Sep  3 23:14:36  2025
Command: ngspice-44.2, Build Sun May  4 23:56:50 UTC 2025
Plotname: DC transfer characteristic
Flags: real
No. Variables: 3
No. Points: 151
Variables:
	0	v(v-sweep)	voltage
	1	i(ids)	current
	2	ro	notype
Values:
 0	0.000000000000000e+00
	0.000000000000000e+00
	2.531911395855620e+01

 1	1.000000000000000e-02
	3.866177926190386e-04
	2.643565035265127e+01

 2	2.000000000000000e-02
	7.565541128438390e-04
	2.769584348716747e+01

 3	3.000000000000000e-02
	1.108747812210850e-03
	2.915988326131513e+01

 4	4.000000000000000e-02
	1.442427914901645e-03
	3.084687068316635e+01

 5	5.000000000000000e-02
	1.757111797181110e-03
	3.277796527390500e+01

 6	6.000000000000000e-02
	2.052593916142799e-03
	3.497636953344078e+01

 7	7.000000000000001e-02
	2.328926432798968e-03
	3.746725634416629e+01

 8	8.000000000000000e-02
	2.586393344002799e-03
	4.027763316221385e+01

 9	9.000000000000000e-02
	2.825479939790110e-03
	4.343613327661317e+01

 10	9.999999999999999e-02
	3.046839486218878e-03
	4.697272206249430e+01

 11	1.100000000000000e-01
	3.251258969018845e-03
	5.091830600331916e+01

 12	1.200000000000000e-01
	3.439625530567963e-03
	5.530423437824356e+01

 13	1.300000000000000e-01
	3.612894930981784e-03
	6.016168769192981e+01

 14	1.400000000000000e-01
	3.772063013080323e-03
	6.552095294801903e+01

 15	1.500000000000000e-01
	3.918140796619102e-03
	7.141059353098092e+01

 16	1.600000000000000e-01
	4.052133504180823e-03
	7.785653048096975e+01

 17	1.700000000000000e-01
	4.175023551045059e-03
	8.488106185180162e+01

 18	1.800000000000000e-01
	4.287757323719263e-03
	9.250185691069746e+01

 19	1.900000000000000e-01
	4.391235426870518e-03
	1.007309711878873e+02

 20	2.000000000000000e-01
	4.486305990173548e-03
	1.095739356475500e+02

 21	2.100000000000000e-01
	4.573760585630270e-03
	1.190289772550517e+02

 22	2.200000000000001e-01
	4.654332301591351e-03
	1.290864279062511e+02

 23	2.300000000000001e-01
	4.728695541414507e-03
	1.397283732119436e+02

 24	2.400000000000001e-01
	4.797467153448988e-03
	1.509285817623152e+02

 25	2.500000000000001e-01
	4.861208547012720e-03
	1.626527397803547e+02

 26	2.600000000000001e-01
	4.920428500592650e-03
	1.748589965741486e+02

 27	2.700000000000001e-01
	4.975586419423300e-03
	1.874988048545559e+02

 28	2.800000000000001e-01
	5.027095847168614e-03
	2.005180190058791e+02

 29	2.900000000000001e-01
	5.075328079046486e-03
	2.138581961292509e+02

 30	3.000000000000001e-01
	5.120615760653307e-03
	2.274580311636554e+02

 31	3.100000000000001e-01
	5.163256387832427e-03
	2.412548500566600e+02

 32	3.200000000000001e-01
	5.203515648449565e-03
	2.551860843900276e+02

 33	3.300000000000001e-01
	5.241630567395572e-03
	2.691906567597622e+02

 34	3.400000000000001e-01
	5.277812432152013e-03
	2.832102174692810e+02

 35	3.500000000000001e-01
	5.312249488487885e-03
	2.971901880550736e+02

 36	3.600000000000002e-01
	5.345109404945387e-03
	3.110805839199721e+02

 37	3.700000000000002e-01
	5.376541511307108e-03
	3.248366050407082e+02

 38	3.800000000000002e-01
	5.406678820736731e-03
	3.384189987800916e+02

 39	3.900000000000002e-01
	5.435639848197456e-03
	3.517942111696114e+02

 40	4.000000000000002e-01
	5.463530239449694e-03
	3.649343520405353e+02

 41	4.100000000000002e-01
	5.490444225719522e-03
	3.778170049480116e+02

 42	4.200000000000002e-01
	5.516465919257838e-03
	3.904249152252602e+02

 43	4.300000000000002e-01
	5.541670464671154e-03
	4.027455892201770e+02

 44	4.400000000000002e-01
	5.566125060252344e-03
	4.147708354710491e+02

 45	4.500000000000002e-01
	5.589889862684726e-03
	4.264962749263289e+02

 46	4.600000000000002e-01
	5.613018787526878e-03
	4.379208429131372e+02

 47	4.700000000000003e-01
	5.635560216867815e-03
	4.490463009315559e+02

 48	4.800000000000003e-01
	5.657557624520991e-03
	4.598767718581912e+02

 49	4.900000000000003e-01
	5.679050128130755e-03
	4.704183080663893e+02

 50	5.000000000000002e-01
	5.700072976617314e-03
	4.806784984417650e+02

 51	5.100000000000002e-01
	5.720657980499510e-03
	4.906661173539712e+02

 52	5.200000000000002e-01
	5.740833891815320e-03
	5.003908163655069e+02

 53	5.300000000000002e-01
	5.760626739609172e-03
	5.098628577356027e+02

 54	5.400000000000003e-01
	5.780060126275355e-03
	5.190928875453105e+02

 55	5.500000000000003e-01
	5.799155489433844e-03
	5.280917454875289e+02

 56	5.600000000000003e-01
	5.817932333464536e-03
	5.368703079009426e+02

 57	5.700000000000003e-01
	5.836408434336303e-03
	5.454393604228670e+02

 58	5.800000000000003e-01
	5.854600020931195e-03
	5.538094966415719e+02

 59	5.900000000000003e-01
	5.872521935677982e-03
	5.619910392566178e+02

 60	6.000000000000003e-01
	5.890187776968116e-03
	5.699939804807451e+02

 61	6.100000000000003e-01
	5.907610025526110e-03
	5.778279386915970e+02

 62	6.200000000000003e-01
	5.924800156641703e-03
	5.855021286502995e+02

 63	6.300000000000003e-01
	5.941768739937796e-03
	5.930253429075727e+02

 64	6.400000000000003e-01
	5.958525528144278e-03
	6.004059423238555e+02

 65	6.500000000000004e-01
	5.975079536167744e-03
	6.076518539099900e+02

 66	6.600000000000004e-01
	5.991439111590635e-03
	6.147705744614952e+02

 67	6.700000000000004e-01
	6.007611997594544e-03
	6.217691786937172e+02

 68	6.800000000000004e-01
	6.023605389182616e-03
	6.286543307904549e+02

 69	6.900000000000004e-01
	6.039425983469504e-03
	6.354322984760693e+02

 70	7.000000000000004e-01
	6.055080024714938e-03
	6.421089688578653e+02

 71	7.100000000000004e-01
	6.070573344696329e-03
	6.486898654495180e+02

 72	7.200000000000004e-01
	6.085911398943578e-03
	6.551801658907933e+02

 73	7.300000000000004e-01
	6.101099299298156e-03
	6.615847199581866e+02

 74	7.400000000000004e-01
	6.116141843203633e-03
	6.679080675832630e+02

 75	7.500000000000004e-01
	6.131043540086215e-03
	6.741544566338293e+02

 76	7.600000000000005e-01
	6.145808635143070e-03
	6.803278602771976e+02

 77	7.700000000000005e-01
	6.160441130818205e-03
	6.864319938008504e+02

 78	7.800000000000005e-01
	6.174944806214086e-03
	6.924703307852967e+02

 79	7.900000000000005e-01
	6.189323234658407e-03
	6.984461185681758e+02

 80	8.000000000000005e-01
	6.203579799620593e-03
	7.043623929690486e+02

 81	8.100000000000005e-01
	6.217717709150005e-03
	7.102219922441544e+02

 82	8.200000000000005e-01
	6.231740008989503e-03
	7.160275702694130e+02

 83	8.300000000000005e-01
	6.245649594499719e-03
	7.217816089596949e+02

 84	8.400000000000005e-01
	6.259449221515472e-03
	7.274864299361589e+02

 85	8.500000000000005e-01
	6.273141516241483e-03
	7.331442054728323e+02

 86	8.600000000000005e-01
	6.286728984283427e-03
	7.387569687358367e+02

 87	8.700000000000006e-01
	6.300214018899866e-03
	7.443266233569717e+02

 88	8.800000000000006e-01
	6.313598908551081e-03
	7.498549523655743e+02

 89	8.900000000000006e-01
	6.326885843813346e-03
	7.553436265206726e+02

 90	9.000000000000006e-01
	6.340076923718993e-03
	7.607942120717572e+02

 91	9.100000000000006e-01
	6.353174161577406e-03
	7.662081779729415e+02

 92	9.200000000000006e-01
	6.366179490325514e-03
	7.715869026044069e+02

 93	9.300000000000006e-01
	6.379094767451471e-03
	7.769316800156741e+02

 94	9.400000000000006e-01
	6.391921779531171e-03
	7.822437257282583e+02

 95	9.500000000000006e-01
	6.404662246412559e-03
	7.875241821193143e+02

 96	9.600000000000006e-01
	6.417317825080118e-03
	7.927741234296375e+02

 97	9.700000000000006e-01
	6.429890113227229e-03
	7.979945604133659e+02

 98	9.800000000000006e-01
	6.442380652563103e-03
	8.031864446426745e+02

 99	9.900000000000007e-01
	6.454790931876998e-03
	8.083506725191420e+02

 100	1.000000000000001e+00
	6.467122389880735e-03
	8.134880889901040e+02

 101	1.010000000000001e+00
	6.479376417848685e-03
	8.185994909936608e+02

 102	1.020000000000001e+00
	6.491554362072317e-03
	8.236856306654358e+02

 103	1.030000000000001e+00
	6.503657526144628e-03
	8.287472183133597e+02

 104	1.040000000000001e+00
	6.515687173088809e-03
	8.337849251754250e+02

 105	1.050000000000001e+00
	6.527644527343759e-03
	8.387993859857824e+02

 106	1.060000000000001e+00
	6.539530776618031e-03
	8.437912013612663e+02

 107	1.070000000000001e+00
	6.551347073622666e-03
	8.487609400066819e+02

 108	1.080000000000001e+00
	6.563094537692902e-03
	8.537091407789629e+02

 109	1.090000000000001e+00
	6.574774256306632e-03
	8.586363145973307e+02

 110	1.100000000000001e+00
	6.586387286508655e-03
	8.635429462188359e+02

 111	1.110000000000001e+00
	6.597934656246870e-03
	8.684294958965993e+02

 112	1.120000000000001e+00
	6.609417365627918e-03
	8.732964009132199e+02

 113	1.130000000000001e+00
