Title: ** sch_path: /home/designer/shared/amaru/analog/tb/tb_nmos_lv_vds.sch
Date: Wed Sep  3 23:17:12  2025
Command: ngspice-44.2, Build Sun May  4 23:56:50 UTC 2025
Plotname: DC transfer characteristic
Flags: real
No. Variables: 3
No. Points: 151
Variables:
	0	v(v-sweep)	voltage
	1	i(ids)	current
	2	ro	notype
Values:
 0	0.000000000000000e+00
	0.000000000000000e+00
	2.720006836515417e+02

 1	1.000000000000000e-02
	3.632779595068667e-05
	2.786215488982634e+02

 2	2.000000000000000e-02
	7.178195684822230e-05
	2.856110582485384e+02

 3	3.000000000000000e-02
	1.063530958205398e-04
	2.930405503821436e+02

 4	4.000000000000000e-02
	1.400318969125537e-04
	3.009520745692793e+02

 5	5.000000000000000e-02
	1.728088596780373e-04
	3.093954333154937e+02

 6	6.000000000000000e-02
	2.046740921307546e-04
	3.184292215776971e+02

 7	7.000000000000001e-02
	2.356171657151137e-04
	3.281219389437186e+02

 8	8.000000000000000e-02
	2.656270417091443e-04
	3.385532053886511e+02

 9	9.000000000000000e-02
	2.946920753058838e-04
	3.498151084425695e+02

 10	9.999999999999999e-02
	3.228001011834565e-04
	3.620137060763054e+02

 11	1.100000000000000e-01
	3.499386023414773e-04
	3.752707050506820e+02

 12	1.200000000000000e-01
	3.760949620154495e-04
	3.897253287661007e+02

 13	1.300000000000000e-01
	4.012567962687785e-04
	4.055363813798221e+02

 14	1.400000000000000e-01
	4.254123621755801e-04
	4.228845052108051e+02

 15	1.500000000000000e-01
	4.485510332378776e-04
	4.419746149268096e+02

 16	1.600000000000000e-01
	4.706638298493785e-04
	4.630384731884187e+02

 17	1.700000000000000e-01
	4.917439883767514e-04
	4.863373466765448e+02

 18	1.800000000000000e-01
	5.117875480599433e-04
	5.121646471147342e+02

 19	1.900000000000000e-01
	5.307939308369924e-04
	5.408484175977112e+02

 20	2.000000000000000e-01
	5.487664858718243e-04
	5.727534691739302e+02

 21	2.100000000000000e-01
	5.657129685668653e-04
	6.082829065446249e+02

 22	2.200000000000001e-01
	5.816459236873809e-04
	6.478787064655572e+02

 23	2.300000000000001e-01
	5.965829443824129e-04
	6.920209325586702e+02

 24	2.400000000000001e-01
	6.105467835588479e-04
	7.412250943415061e+02

 25	2.500000000000001e-01
	6.235653012301228e-04
	7.960370990572242e+02

 26	2.600000000000001e-01
	6.356712407275989e-04
	8.570252212705620e+02

 27	2.700000000000001e-01
	6.469018373128644e-04
	9.247685507577634e+02

 28	2.800000000000001e-01
	6.572982737658784e-04
	9.998415008686601e+02

 29	2.900000000000001e-01
	6.669050077980104e-04
	1.082794192897068e+03

 30	3.000000000000001e-01
	6.757690045208052e-04
	1.174128894244382e+03

 31	3.100000000000001e-01
	6.839389127619718e-04
	1.274273178401518e+03

 32	3.200000000000001e-01
	6.914642261883353e-04
	1.383551063568030e+03

 33	3.300000000000001e-01
	6.983944688499576e-04
	1.502154008220523e+03

 34	3.400000000000001e-01
	7.047784402373278e-04
	1.630114193137410e+03

 35	3.500000000000001e-01
	7.106635479636772e-04
	1.767282871112666e+03

 36	3.600000000000002e-01
	7.160952477087929e-04
	1.913316587655122e+03

 37	3.700000000000002e-01
	7.211166011222823e-04
	2.067673673435622e+03

 38	3.800000000000002e-01
	7.257679539278396e-04
	2.229622560887873e+03

 39	3.900000000000002e-01
	7.300867292286447e-04
	2.398262261962983e+03

 40	4.000000000000002e-01
	7.341073254457945e-04
	2.572553940482645e+03

 41	4.100000000000002e-01
	7.378611046014106e-04
	2.751361167311134e+03

 42	4.200000000000002e-01
	7.413764547181050e-04
	2.933495413830498e+03

 43	4.300000000000002e-01
	7.446789097037149e-04
	3.117762813131405e+03

 44	4.400000000000002e-01
	7.477913108821994e-04
	3.303008280747670e+03

 45	4.500000000000002e-01
	7.507339959463304e-04
	3.488153689382280e+03

 46	4.600000000000002e-01
	7.535250031965256e-04
	3.672227778588244e+03

 47	4.700000000000003e-01
	7.561802812003700e-04
	3.854386636859278e+03

 48	4.800000000000003e-01
	7.587138962382203e-04
	4.033924707485430e+03

 49	4.900000000000003e-01
	7.611382319432006e-04
	4.210277177857015e+03

 50	5.000000000000002e-01
	7.634641773135814e-04
	4.383015225434250e+03

 51	5.100000000000002e-01
	7.657013007374730e-04
	4.551835896434352e+03

 52	5.200000000000002e-01
	7.678580088257558e-04
	4.716548426499890e+03

 53	5.300000000000002e-01
	7.699416897235439e-04
	4.877058647829585e+03

 54	5.400000000000003e-01
	7.719588412012083e-04
	5.033352844165530e+03

 55	5.500000000000003e-01
	7.739151842547654e-04
	5.185482084998334e+03

 56	5.600000000000003e-01
	7.758157632138906e-04
	5.333547745893842e+03

 57	5.700000000000003e-01
	7.776650335019944e-04
	5.477688637340480e+03

 58	5.800000000000003e-01
	7.794669382484962e-04
	5.618069935381296e+03

 59	5.900000000000003e-01
	7.812249749463052e-04
	5.754873937532745e+03

 60	6.000000000000003e-01
	7.829422532974605e-04
	5.888292552120953e+03

 61	6.100000000000003e-01
	7.846215453141949e-04
	6.018521358862777e+03

 62	6.200000000000003e-01
	7.862653286522648e-04
	6.145755043416299e+03

 63	6.300000000000003e-01
	7.878758240576058e-04
	6.270183998348579e+03

 64	6.400000000000003e-01
	7.894550277113781e-04
	6.391991889767271e+03

 65	6.500000000000004e-01
	7.910047391665279e-04
	6.511354005171302e+03

 66	6.600000000000004e-01
	7.925265854832511e-04
	6.628436219895199e+03

 67	6.700000000000004e-01
	7.940220420923628e-04
	6.743394443066534e+03

 68	6.800000000000004e-01
	7.954924508451036e-04
	6.856374426716292e+03

 69	6.900000000000004e-01
	7.969390356454087e-04
	6.967511843046443e+03

 70	7.000000000000004e-01
	7.983629160054836e-04
	7.076932553675287e+03

 71	7.100000000000004e-01
	7.997651188175047e-04
	7.184753010453005e+03

 72	7.200000000000004e-01
	8.011465885925444e-04
	7.291080741337499e+03

 73	7.300000000000004e-01
	8.025081963816589e-04
	7.396014885795096e+03

 74	7.400000000000004e-01
	8.038507475631290e-04
	7.499646752973329e+03

 75	7.500000000000004e-01
	8.051749886531844e-04
	7.602060383134050e+03

 76	7.600000000000005e-01
	8.064816132747947e-04
	7.703333098764773e+03

 77	7.700000000000005e-01
	8.077712673994854e-04
	7.803536035477094e+03

 78	7.800000000000005e-01
	8.090445539607958e-04
	7.902734646589081e+03

 79	7.900000000000005e-01
	8.103020369235048e-04
	8.000989177839064e+03

 80	8.000000000000005e-01
	8.115442448809380e-04
	8.098355110021963e+03

 81	8.100000000000005e-01
	8.127716742422301e-04
	8.194883569214184e+03

 82	8.200000000000005e-01
	8.139847920627350e-04
	8.290621705001397e+03

 83	8.300000000000005e-01
	8.151840385632236e-04
	8.385613037608535e+03

 84	8.400000000000005e-01
	8.163698293772762e-04
	8.479897775623054e+03

 85	8.500000000000005e-01
	8.175425575606452e-04
	8.573513105986647e+03

 86	8.600000000000005e-01
	8.187025953919493e-04
	8.666493457895638e+03

 87	8.700000000000006e-01
	8.198502959899380e-04
	8.758870743056947e+03

 88	8.800000000000006e-01
	8.209859947691868e-04
	8.850674573741402e+03

 89	8.900000000000006e-01
	8.221100107533004e-04
	8.941932460643338e+03

 90	9.000000000000006e-01
	8.232226477620412e-04
	9.032669992508279e+03

 91	9.100000000000006e-01
	8.243241954867832e-04
	9.122910998784075e+03

 92	9.200000000000006e-01
	8.254149304668342e-04
	9.212677697232995e+03

 93	9.300000000000006e-01
	8.264951169775032e-04
	9.301990827743675e+03

 94	9.400000000000006e-01
	8.275650078395563e-04
	9.390869773704077e+03

 95	9.500000000000006e-01
	8.286248451583798e-04
	9.479332672114688e+03

 96	9.600000000000006e-01
	8.296748610002998e-04
	9.567396513490106e+03

 97	9.700000000000006e-01
	8.307152780124797e-04
	9.655077232618140e+03

 98	9.800000000000006e-01
	8.317463099921766e-04
	9.742389791152857e+03

 99	9.900000000000007e-01
	8.327681624103265e-04
	9.829348252651844e+03

 100	1.000000000000001e+00
	8.337810328940338e-04
	9.915965850829787e+03

 101	1.010000000000001e+00
	8.347851116718376e-04
	1.000225505185206e+04

 102	1.020000000000001e+00
	8.357805819853456e-04
	1.008822761116716e+04

 103	1.030000000000001e+00
	8.367676204702970e-04
	1.017389462522533e+04

 104	1.040000000000001e+00
	8.377463975099542e-04
	1.025926657891917e+04

 105	1.050000000000001e+00
	8.387170775631750e-04
	1.034435338896588e+04

 106	1.060000000000001e+00
	8.396798194695456e-04
	1.042916444337862e+04

 107	1.070000000000001e+00
	8.406347767334760e-04
	1.051370863806945e+04

 108	1.080000000000001e+00
	8.415820977890704e-04
	1.059799441005127e+04

 109	1.090000000000001e+00
	8.425219262474474e-04
	1.068202976814434e+04

 110	1.100000000000001e+00
	8.434544011278650e-04
	1.076582232123589e+04

 111	1.110000000000001e+00
	8.443796570740606e-04
	1.084937930412480e+04

 112	1.120000000000001e+00
	8.452978245569266e-04
	1.093270760152901e+04

 113	1.130000000000001e+00
	8.462090300646272e-04
	1.101581377014178e+04

 114	1.140000000000001e+00
	8.471133962811155e-04
	1.109870405889963e+04

 115	1.150000000000001e+00
	8.480110422539659e-04
	1.118138442805445e+04

 116	1.160000000000001e+00
	8.489020835522390e-04
	1.126386056644250e+04

 117	1.170000000000001e+00
	8.497866324152632e-04
	1.134613790761158e+04

 118	1.180000000000001e+00
	8.506647978928239e-04
	1.142822164507424e+04

 119	1.190000000000001e+00
	8.515366859775006e-04
	1.151011674590411e+04

 120	1.200000000000001e+00
	8.524023997296703e-04
	1.159182796382189e+04

 121	1.210000000000001e+00
	8.532620393956517e-04
	1.167335985131851e+04

 122	1.220000000000001e+00
	8.541157025195043e-04
	1.175471677066273e+04

 123	1.230000000000001e+00
	8.549634840489092e-04
	1.183590290447931e+04

 124	1.240000000000001e+00
	8.558054764354791e-04
	1.191692226546108e+04

 125	1.250000000000001e+00
	8.566417697299332e-04
	1.199777870536591e+04

 126	1.260000000000001e+00
	8.574724516724082e-04
	1.207847592368800e+04

 127	1.270000000000001e+00
	8.582976077782400e-04
	1.215901747550779e+04

 128	1.280000000000001e+00
	8.591173214195145e-04
	1.223940677896814e+04

 129	1.290000000000001e+00
	8.599316739026185e-04
	1.231964712216371e+04

 130	1.300000000000001e+00
	8.607407445420826e-04
	1.239974166975034e+04

 131	1.310000000000001e+00
	8.615446107308744e-04
	1.247969346914863e+04

 132	1.320000000000001e+00
	8.623433480074195e-04
	1.255950545616266e+04

 133	1.330000000000001e+00
	8.631370301195046e-04
	1.263918046048655e+04

 134	1.340000000000001e+00
	8.639257290852533e-04
	1.271872121081421e+04

 135	1.350000000000001e+00
	8.647095152513427e-04
	1.279813033954014e+04

 136	1.360000000000001e+00
	8.654884573486317e-04
	1.287741038734521e+04

 137	1.370000000000001e+00
	8.662626225453104e-04
	1.295656380753535e+04

 138	1.380000000000001e+00
	8.670320764977435e-04
	1.303559296985654e+04

 139	1.390000000000001e+00
	8.677968833991317e-04
	1.311450016442212e+04

 140	1.400000000000001e+00
	8.685571060260710e-04
	1.319328760531935e+04

 141	1.410000000000001e+00
	8.693128057831732e-04
	1.327195743388786e+04

 142	1.420000000000001e+00
	8.700640427458146e-04
	1.335051172197310e+04

 143	1.430000000000001e+00
	8.708108757011287e-04
	1.342895247493778e+04

 144	1.440000000000001e+00
	8.715533621873218e-04
	1.350728163464287e+04

 145	1.450000000000001e+00
	8.722915585313959e-04
	1.358550108194015e+04

 146	1.460000000000001e+00
	8.730255198853979e-04
	1.366361263937450e+04

 147	1.470000000000001e+00
	8.737553002611904e-04
	1.374161807367243e+04

 148	1.480000000000001e+00
	8.744809525639060e-04
	1.381951909794925e+04

 149	1.490000000000001e+00
	8.752025286240766e-04
	1.389731737395802e+04

 150	1.500000000000001e+00
	8.759200792285584e-04
	1.397550056608577e+04

Title: ** sch_path: /home/designer/shared/amaru/analog/tb/tb_nmos_lv_vds.sch
Date: Wed Sep  3 23:17:12  2025
Command: ngspice-44.2, Build Sun May  4 23:56:50 UTC 2025
Plotname: DC transfer characteristic
Flags: real
No. Variables: 3
No. Points: 151
Variables:
	0	v(v-sweep)	voltage
	1	i(ids)	current
	2	ro	notype
Values:
 0	0.000000000000000e+00
	0.000000000000000e+00
	4.888307334701400e+01

 1	1.000000000000000e-02
	2.024139206280773e-04
	4.993557006603049e+01

 2	2.000000000000000e-02
	4.005161045233633e-04
	5.104198855188904e+01

 3	3.000000000000000e-02
	5.942481842886339e-04
	5.221434584515994e+01

 4	4.000000000000000e-02
	7.835525991164278e-04
	5.345830011331012e+01

 5	5.000000000000000e-02
	9.683715656458420e-04
	5.478047770654872e+01

 6	6.000000000000000e-02
	1.148646165973168e-03
	5.618860507914994e+01

 7	7.000000000000001e-02
	1.324315621773006e-03
	5.769164574793164e+01

 8	8.000000000000000e-02
	1.495316810235678e-03
	5.929994491316781e+01

 9	9.000000000000000e-02
	1.661584063240966e-03
	6.102538501814517e+01

 10	9.999999999999999e-02
	1.823049277536838e-03
	6.288155568266264e+01

 11	1.100000000000000e-01
	1.979642352080571e-03
	6.488394109931596e+01

 12	1.200000000000000e-01
	2.131291959179536e-03
	6.705012733529043e+01

 13	1.300000000000000e-01
	2.277926647649289e-03
	6.940003120380436e+01

 14	1.400000000000000e-01
	2.419476267645721e-03
	7.195615149017293e+01

 15	1.500000000000000e-01
	2.555873697148336e-03
	7.474384226642975e+01

 16	1.600000000000000e-01
	2.687056838747599e-03
	7.779160668693549e+01

 17	1.700000000000000e-01
	2.812970842351777e-03
	8.113140787264597e+01

 18	1.800000000000000e-01
	2.933570495103650e-03
	8.479899114687555e+01

 19	1.900000000000000e-01
	3.048822704850461e-03
	8.883420881146452e+01

 20	2.000000000000000e-01
	3.158708989244422e-03
	9.328133473430351e+01

 21	2.100000000000000e-01
	3.263227870224292e-03
	9.818935119121925e+01

 22	2.200000000000001e-01
	3.362397064961013e-03
	1.036121846019010e+02

 23	2.300000000000001e-01
	3.456255360927669e-03
	1.096088601359441e+02

 24	2.400000000000001e-01
	3.544864066033688e-03
	1.162435378764170e+02

 25	2.500000000000001e-01
	3.628307935766390e-03
	1.235853858040758e+02

 26	2.600000000000001e-01
	3.706695498365879e-03
	1.317082380986887e+02

 27	2.700000000000001e-01
	3.780158725729992e-03
	1.406899823080644e+02

 28	2.800000000000001e-01
	3.848852030564502e-03
	1.506116173694352e+02

 29	2.900000000000001e-01
	3.912950606922942e-03
	1.615559281885903e+02

 30	3.000000000000001e-01
	3.972648168683638e-03
	1.736057335912672e+02

 31	3.100000000000001e-01
	4.028154175297518e-03
	1.868416849470235e+02

 32	3.200000000000001e-01
	4.079690663005345e-03
	2.013396240225299e+02

 33	3.300000000000001e-01
	4.127488819916513e-03
	2.171675508311887e+02

 34	3.400000000000001e-01
	4.171785453057781e-03
	2.343823036861745e+02

 35	3.500000000000001e-01
	4.212819494141726e-03
	2.530261101338972e+02

 36	3.600000000000002e-01
	4.250828679029268e-03
	2.731232220602412e+02

 37	3.700000000000002e-01
	4.286046515444179e-03
	2.946768918419408e+02

 38	3.800000000000002e-01
	4.318699627019067e-03
	3.176669687303226e+02

 39	3.900000000000002e-01
	4.349005532177766e-03
	3.420483864236228e+02

 40	4.000000000000002e-01
	4.377170886623930e-03
	3.677507681844276e+02

 41	4.100000000000002e-01
	4.403390190838683e-03
	3.946792948760638e+02

 42	4.200000000000002e-01
	4.427844940874180e-03
	4.227168710582322e+02

 43	4.300000000000002e-01
	4.450703182983832e-03
	4.517274988037332e+02

 44	4.400000000000002e-01
	4.472119420627934e-03
	4.815606467563609e+02

 45	4.500000000000002e-01
	4.492234815883475e-03
	5.120563024933152e+02

 46	4.600000000000002e-01
	4.511177625560899e-03
	5.430503352705914e+02

 47	4.700000000000003e-01
	4.529063814414586e-03
	5.743797822820904e+02

 48	4.800000000000003e-01
	4.545997792664513e-03
	6.058877043599638e+02

 49	4.900000000000003e-01
	4.562073231598794e-03
	6.374273279745017e+02

 50	5.000000000000002e-01
	4.577373918416058e-03
	6.688652851263686e+02

 51	5.100000000000002e-01
	4.591974618985376e-03
	7.000838649432258e+02

 52	5.200000000000002e-01
	4.605941924338637e-03
	7.309822855710559e+02

 53	5.300000000000002e-01
	4.619335063136735e-03
	7.614770715011288e+02

 54	5.400000000000003e-01
	4.632206667885771e-03
	7.915016740653873e+02

 55	5.500000000000003e-01
	4.644603487266875e-03
	8.210055006245053e+02

 56	5.600000000000003e-01
	4.656567040605304e-03
	8.499525239705346e+02

 57	5.700000000000003e-01
	4.668134213320338e-03
	8.783196326486138e+02

 58	5.800000000000003e-01
	4.679337794276936e-03
	9.060948611488501e+02

 59	5.900000000000003e-01
	4.690206957419826e-03
	9.332756116782567e+02

 60	6.000000000000003e-01
	4.700767691029553e-03
	9.598669507354243e+02

 61	6.100000000000003e-01
	4.711043178507214e-03
	9.858800371852299e+02

 62	6.200000000000003e-01
	4.721054134862112e-03
	1.011330715684821e+03

 63	6.300000000000003e-01
	4.730819103127932e-03
	1.036238290981757e+03

 64	6.400000000000003e-01
	4.740354714829150e-03
	1.060624484846573e+03

 65	6.500000000000004e-01
	4.749675918415289e-03
	1.084512567761991e+03

 66	6.600000000000004e-01
	4.758796179312381e-03
	1.107926651387600e+03

 67	6.700000000000004e-01
	4.767727654940403e-03
	1.130891124409020e+03

 68	6.800000000000004e-01
	4.776481347732508e-03
	1.153430213079320e+03

 69	6.900000000000004e-01
	4.785067238881598e-03
	1.175567647873500e+03

 70	7.000000000000004e-01
	4.793494405242365e-03
	1.197326418723390e+03

 71	7.100000000000004e-01
	4.801771121538196e-03
	1.218728602910070e+03

 72	7.200000000000004e-01
	4.809904949765768e-03
	1.239795251545909e+03

 73	7.300000000000004e-01
	4.817902817457391e-03
	1.260546322508108e+03

 74	7.400000000000004e-01
	4.825771086251896e-03
	1.281000649543211e+03

 75	7.500000000000004e-01
	4.833515612038823e-03
	1.301175939017452e+03

 76	7.600000000000005e-01
	4.841141797775429e-03
	1.321088787276575e+03

 77	7.700000000000005e-01
	4.848654639932043e-03
	1.340754712928933e+03

 78	7.800000000000005e-01
	4.856058769393832e-03
	1.360188199573910e+03

 79	7.900000000000005e-01
	4.863358487536562e-03
	1.379402745349021e+03

 80	8.000000000000005e-01
	4.870557798098417e-03
	1.398410916565704e+03

 81	8.100000000000005e-01
	4.877660435385423e-03
	1.417224403316949e+03

 82	8.200000000000005e-01
	4.884669889276915e-03
	1.435854075438527e+03

 83	8.300000000000005e-01
	4.891589427434209e-03
	1.454310037676088e+03

 84	8.400000000000005e-01
	4.898422115062249e-03
	1.472601683231818e+03

 85	8.500000000000005e-01
	4.905170832526798e-03
	1.490737745101510e+03

 86	8.600000000000005e-01
	4.911838291090339e-03
	1.508726344813926e+03

 87	8.700000000000006e-01
	4.918427046994549e-03
	1.526575038415696e+03

 88	8.800000000000006e-01
	4.924939514087380e-03
	1.544290859530541e+03

 89	8.900000000000006e-01
	4.931377975167549e-03
	1.561880359521718e+03

 90	9.000000000000006e-01
	4.937744592196003e-03
	1.579349644808830e+03

 91	9.100000000000006e-01
	4.944041415505626e-03
	1.596704411409878e+03

 92	9.200000000000006e-01
	4.950270392123079e-03
	1.613949976826231e+03

 93	9.300000000000006e-01
	4.956433373303060e-03
	1.631091309452018e+03

 94	9.400000000000006e-01
	4.962532121361720e-03
	1.648133055637494e+03

 95	9.500000000000006e-01
	4.968568315886481e-03
	1.665079564527794e+03

 96	9.600000000000006e-01
	4.974543559389110e-03
	1.681934910882081e+03

 97	9.700000000000006e-01
	4.980459382461413e-03
	1.698702916011023e+03

 98	9.800000000000006e-01
	4.986317248485356e-03
	1.715387166989223e+03

 99	9.900000000000007e-01
	4.992118557943705e-03
	1.731991034221130e+03

 100	1.000000000000001e+00
	4.997864652371886e-03
	1.748517687578623e+03

 101	1.010000000000001e+00
	5.003556817986528e-03
	1.764970111208284e+03

 102	1.020000000000001e+00
	5.009196289022837e-03
	1.781351117040248e+03

 103	1.030000000000001e+00
	5.014784250809110e-03
	1.797663357249412e+03

 104	1.040000000000001e+00
	5.020321842602903e-03
	1.813909335660293e+03

 105	1.050000000000001e+00
	5.025810160211974e-03
	1.830091418171220e+03

 106	1.060000000000001e+00
	5.031250258419412e-03
	1.846211842402467e+03

 107	1.070000000000001e+00
	5.036643153230790e-03
	1.862272726519627e+03

 108	1.080000000000001e+00
	5.041989823959513e-03
	1.878276077342420e+03

 109	1.090000000000001e+00
	5.047291215164421e-03
	1.894223797807140e+03

 110	1.100000000000001e+00
	5.052548238452644e-03
	1.910117693871719e+03

 111	1.110000000000001e+00
	5.057761774158857e-03
	1.925959480833112e+03

 112	1.120000000000001e+00
	5.062932672911954e-03
	1.941750789165063e+03

 113	1.130000000000001e+00
