Title: ** sch_path: /home/designer/shared/amaru/analog/tb/tb_pmos_lv_vgs.sch
Date: Wed Sep  3 23:27:52  2025
Command: ngspice-44.2, Build Sun May  4 23:56:50 UTC 2025
Plotname: DC transfer characteristic
Flags: real
No. Variables: 16
No. Points: 151
Variables:
	0	v(v-sweep)	voltage
	1	i(ids)	current
	2	v(vth)	voltage
	3	gm	admittance
	4	gmb	admittance
	5	gds	admittance
	6	cgg	capacitance
	7	cgs	capacitance
	8	cgd	capacitance
	9	cgb	capacitance
	10	cdd	capacitance
	11	css	capacitance
	12	cgsol	capacitance
	13	cgdol	capacitance
	14	cjs	capacitance
	15	cjd	capacitance
Values:
 0	0.000000000000000e+00
	7.715741506431961e-04
	3.701295905157360e-01
	9.031213192569371e-04
	2.476651555370433e-04
	3.828960229650852e-04
	4.564932022672250e-14
	3.514517498331166e-14
	8.428710687188147e-15
	2.075434556222685e-15
	7.113773435050199e-15
	2.403157238927518e-14
	5.354392510224762e-15
	5.235136939230016e-15
	3.646535423647613e-15
	2.839086693950783e-15

 1	1.000000000000000e-02
	7.625170781269930e-04
	3.700727708646760e-01
	9.082714054590528e-04
	2.477761721488712e-04
	3.709064954248401e-04
	4.552886271137287e-14
	3.520118968513224e-14
	8.233120596629096e-15
	2.094552429611534e-15
	6.954463414372362e-15
	2.405358922599192e-14
	5.353587030509450e-15
	5.232291979335696e-15
	3.646535423647613e-15
	2.839086693950783e-15

 2	2.000000000000000e-02
	7.534091408511515e-04
	3.700159448013660e-01
	9.132929446730287e-04
	2.478527072386713e-04
	3.590490394553080e-04
	4.540669784385125e-14
	3.525565499040077e-14
	8.037076440208367e-15
	2.113966413242108e-15
	6.794563271565326e-15
	2.407498706488755e-14
	5.352768726621009e-15
	5.229398331771765e-15
	3.646535423647613e-15
	2.839086693950783e-15

 3	3.000000000000000e-02
	7.442516650323308e-04
	3.699591124055791e-01
	9.181777650195610e-04
	2.478935392267385e-04
	3.473313568518181e-04
	4.528289465671967e-14
	3.530850403123953e-14
	7.840720010887589e-15
	2.133670614592553e-15
	6.634186143646720e-15
	2.409574546882500e-14
	5.351937360709072e-15
	5.226455268244009e-15
	3.646535423647613e-15
	2.839086693950783e-15

 4	4.000000000000000e-02
	7.350460592421632e-04
	3.699022737593681e-01
	9.229175700698724e-04
	2.478974366971036e-04
	3.357611053576211e-04
	4.515752749370112e-14
	3.535967092611336e-14
	7.644198155770260e-15
	2.153658411817502e-15
	6.473449830390400e-15
	2.411584452396137e-14
	5.351092690236613e-15
	5.223462058248317e-15
	3.646535423647613e-15
	2.839086693950783e-15

 5	5.000000000000000e-02
	7.257938155696794e-04
	3.698454289471394e-01
	9.275039557079676e-04
	2.478631609817775e-04
	3.243458734678161e-04
	4.503067601164741e-14
	3.540909105151337e-14
	7.447662519252742e-15
	2.173922440881302e-15
	6.312476619033615e-15
	2.413526491943990e-14
	5.350234467893972e-15
	5.220417969564994e-15
	3.646535423647613e-15
	2.839086693950783e-15

 6	6.000000000000000e-02
	7.164965106077364e-04
	3.697885780557340e-01
	9.319284284689293e-04
	2.477894689468484e-04
	3.130931542018635e-04
	4.490242515351426e-14
	3.545670132226524e-14
	7.251269245281139e-15
	2.194454585967883e-15
	6.151393074110674e-15
	2.415398802744627e-14
	5.349362441511985e-15
	5.217322268778064e-15
	3.646535423647613e-15
	2.839086693950783e-15

 7	7.000000000000001e-02
	7.071558062487104e-04
	3.697317211745093e-01
	9.361824253355474e-04
	2.476751159784036e-04
	3.020103179577105e-04
	4.477286509015509e-14
	3.550244047881297e-14
	7.055178637834169e-15
	2.215245973507950e-15
	5.990329791285255e-15
	2.417199598297244e-14
	5.348476353974228e-15
	5.214174221819912e-15
	3.646535423647613e-15
	2.839086693950783e-15

 8	8.000000000000000e-02
	6.977734502750909e-04
	3.696748583954242e-01
	9.402573349604264e-04
	2.475188591639455e-04
	2.911045845789989e-04
	4.464209112886245e-14
	3.554624937959051e-14
	6.859554779097721e-15
	2.236286970174217e-15
	5.829421114320978e-15
	2.418927176257169e-14
	5.347575943128445e-15
	5.210973094541554e-15
	3.646535423647613e-15
	2.839086693950783e-15

 9	9.000000000000000e-02
	6.883512767308997e-04
	3.696179898131290e-01
	9.441445202644633e-04
	2.473194606629315e-04
	2.803829947848052e-04
	4.451020358672702e-14
	3.558807129636126e-14
	6.664565105183158e-15
	2.257567185182593e-15
	5.668804814632466e-15
	2.420579926133239e-14
	5.346660941697173e-15
	5.207718153308814e-15
	3.646535423647613e-15
	2.839086693950783e-15

 10	9.999999999999999e-02
	6.788912060605480e-04
	3.695611155250575e-01
	9.478353423453700e-04
	2.470756912578230e-04
	2.698523811296793e-04
	4.437730762707805e-14
	3.562785221018496e-14
	6.470379939673627e-15
	2.279075477219462e-15
	5.508621733206212e-15
	2.422156336725400e-14
	5.345731077187641e-15
	5.204408665624566e-15
	3.646535423647613e-15
	2.839086693950783e-15

 11	1.100000000000000e-01
	6.693952450023503e-04
	3.695042356315235e-01
	9.513211856117579e-04
	2.467863340744343e-04
	2.595193386792448e-04
	4.424351305749536e-14
	3.566554110544319e-14
	6.277171985747979e-15
	2.300799966304196e-15
	5.349015385060588e-15
	2.423655003215932e-14
	5.344786071800968e-15
	5.201043900777196e-15
	3.646535423647613e-15
	2.839086693950783e-15

 12	1.200000000000000e-01
	6.598654862250515e-04
	3.694473502358229e-01
	9.545934840397092e-04
	2.464501884579956e-04
	2.493901956037508e-04
	4.410893408816749e-14
	3.570109025916143e-14
	6.085115778142691e-15
	2.322728050863372e-15
	5.190131526837825e-15
	2.425074633824766e-14
	5.343825642340743e-15
	5.197623130515345e-15
	3.646535423647613e-15
	2.839086693950783e-15

 13	1.300000000000000e-01
	6.503041076966152e-04
	3.693904594443361e-01
	9.576437484294762e-04
	2.460660739886670e-04
	2.394709839074920e-04
	4.397368904968224e-14
	3.573445552267410e-14
	5.894387096744513e-15
	2.344846430263636e-15
	5.032117688569902e-15
	2.426414055936428e-14
	5.342849500121035e-15
	5.194145629748931e-15
	3.646535423647613e-15
	2.839086693950783e-15

 14	1.400000000000000e-01
	6.407133717760836e-04
	3.693335633666394e-01
	9.604635945208648e-04
	2.456328346176147e-04
	2.297674105265870e-04
	4.383790006971025e-14
	3.576559659252409e-14
	5.705162344173958e-15
	2.367141133012208e-15
	4.875122671145963e-15
	2.427672221604808e-14
	5.341857350873898e-15
	5.190610677276376e-15
	3.646535423647613e-15
	2.839086693950783e-15

 15	1.500000000000000e-01
	6.310956240206142e-04
	3.692766621156181e-01
	9.630447718066140e-04
	2.451493429021056e-04
	2.202848290397608e-04
	4.370169270844197e-14
	3.579447726735535e-14
	5.517617890298218e-15
	2.389597550788402e-15
	4.719296011511987e-15
	2.428848212341413e-14
	5.340848894656442e-15
	5.187017556537884e-15
	3.646535423647613e-15
	2.839086693950783e-15

 16	1.600000000000000e-01
	6.214532917016384e-04
	3.692197558075846e-01
	9.653791928645374e-04
	2.446145043155396e-04
	2.110282122471333e-04
	4.356519555308909e-14
	3.582106568746832e-14
	5.331929387204704e-15
	2.412200478416071e-15
	4.564787418157540e-15
	2.429941243093974e-14
	5.339823825757572e-15
	5.183365556394532e-15
	3.646535423647613e-15
	2.839086693950783e-15

 17	1.700000000000000e-01
	6.117888820259343e-04
	3.691628445624029e-01
	9.674589630114474e-04
	2.440272616057884e-04
	2.020021258794486e-04
	4.342853977224488e-14
	3.584533455365513e-14
	5.148271058759519e-15
	2.434934159830236e-15
	4.411746179977248e-15
	2.430950665324612e-14
	5.338781832604437e-15
	5.179653971932851e-15
	3.646535423647613e-15
	2.839086693950783e-15

 18	1.800000000000000e-01
	6.021049800594129e-04
	3.691059285036186e-01
	9.692764100653137e-04
	2.433865991728680e-04
	1.932107037046471e-04
	4.329185863140691e-14
	3.586726132192450e-14
	4.966814969455156e-15
	2.457782340027253e-15
	4.260320552125854e-15
	2.431875969100508e-14
	5.337722597668718e-15
	5.175882105294471e-15
	3.646535423647613e-15
	2.839086693950783e-15

 19	1.900000000000000e-01
	5.924042463537054e-04
	3.690490077585917e-01
	9.708241139872462e-04
	2.426915474347983e-04
	1.846576242999337e-04
	4.315528697150718e-14
	3.588682837077681e-14
	4.787730277811678e-15
	2.480728322918691e-15
	4.110657123010102e-15
	2.432716784115789e-14
	5.336645797372819e-15
	5.172049266530336e-15
	3.646535423647613e-15
	2.839086693950783e-15

 20	2.000000000000000e-01
	5.826894142779226e-04
	3.689920824586392e-01
	9.720949361620132e-04
	2.419411871486890e-04
	1.763460897548423e-04
	4.301896065284243e-14
	3.590402313779001e-14
	4.611182480120608e-15
	2.503755034931808e-15
	3.962900167062668e-15
	2.433472879570284e-14
	5.335551101996097e-15
	5.168154774478836e-15
	3.646535423647613e-15
	2.839086693950783e-15

 21	2.100000000000000e-01
	5.729632870604654e-04
	3.689351527391811e-01
	9.730820480653528e-04
	2.411346536523534e-04
	1.682788065644772e-04
	4.288301596736056e-14
	3.591883822243597e-14
	4.437332650796393e-15
	2.526845094128197e-15
	3.817190988414682e-15
	2.434144162839414e-14
	5.334438175581201e-15
	5.164197957667181e-15
	3.646535423647613e-15
	2.839086693950783e-15

 22	2.200000000000001e-01
	5.632287345483000e-04
	3.688782187398946e-01
	9.737789590587673e-04
	2.402711409906221e-04
	1.604579689614218e-04
	4.274758902281177e-14
	3.593127145226624e-14
	4.266336686016711e-15
	2.549980884528819e-15
	3.673667261010057e-15
	2.434730676879747e-14
	5.333306675840677e-15
	5.160178155235147e-15
	3.646535423647613e-15
	2.839086693950783e-15

 23	2.300000000000001e-01
	5.534886896937607e-04
	3.688212806048735e-01
	9.741795430480351e-04
	2.393499058897144e-04
	1.528852449200970e-04
	4.261281510281745e-14
	3.594132590989199e-14
	4.098344557672834e-15
	2.573144635252623e-15
	3.532462371076103e-15
	2.435232596326533e-14
	5.332156254063934e-15
	5.156094717880282e-15
	3.646535423647613e-15
	2.839086693950783e-15

 24	2.400000000000001e-01
	5.437461447815240e-04
	3.687643384827962e-01
	9.742780637407829e-04
	2.383702715426267e-04
	1.455617650481011e-04
	4.247882800741923e-14
	3.594900991851595e-14
	3.933499584904053e-15
	2.596318503999224e-15
	3.393704768166443e-15
	2.435650222252257e-14
	5.330986555024717e-15
	5.151947008823483e-15
	3.646535423647613e-15
	2.839086693950783e-15

 25	2.500000000000001e-01
	5.340041474111486e-04
	3.687073925271022e-01
	9.740691982414309e-04
	2.373316311687014e-04
	1.384881145557789e-04
	4.234575937915221e-14
	3.595433698417835e-14
	3.771937730647050e-15
	2.619484664326809e-15
	3.257517331217520e-15
	2.435983975569634e-14
	5.329797216889226e-15
	5.147734404793806e-15
	3.646535423647613e-15
	2.839086693950783e-15

 26	2.600000000000001e-01
	5.242657962529985e-04
	3.686504428961734e-01
	9.735480587286458e-04
	2.362334513112532e-04
	1.316643284676306e-04
	4.221373802009998e-14
	3.595732569332563e-14
	3.613786930671574e-15
	2.642625396102772e-15
	3.124016756189639e-15
	2.436234389077238e-14
	5.328587871125022e-15
	5.143456297031177e-15
	3.646535423647613e-15
	2.839086693950783e-15

 27	2.700000000000001e-01
	5.145342365980220e-04
	3.685934897535265e-01
	9.727102119717458e-04
	2.350752748383961e-04
	1.250898902078674e-04
	4.208288920575543e-14
	3.595799956481295e-14
	3.459166462503821e-15
	2.665723178438662e-15
	2.993312971899360e-15
	2.436402098161893e-14
	5.327358142410897e-15
	5.139112092305598e-15
	3.646535423647613e-15
	2.839086693950783e-15

 28	2.800000000000001e-01
	5.048126557241455e-04
	3.685365332680145e-01
	9.715516964578339e-04
	2.338567236141168e-04
	1.187637336574202e-04
	4.195333400178694e-14
	3.595638685598891e-14
	3.308186361437707e-15
	2.688760784360324e-15
	2.865508590574065e-15
	2.436487830187828e-14
	5.326107648547855e-15
	5.134701213951312e-15
	3.646535423647613e-15
	2.839086693950783e-15

 29	2.900000000000001e-01
	4.951042781041777e-04
	3.684795736140354e-01
	9.700690369210918e-04
	2.325775008090955e-04
	1.126842487416090e-04
	4.182518858999937e-14
	3.595252032307703e-14
	3.160946890507194e-15
	2.711721376415150e-15
	2.740698399472404e-15
	2.436492392618495e-14
	5.324836000371390e-15
	5.130223102914244e-15
	3.646535423647613e-15
	2.839086693950783e-15

 30	3.000000000000001e-01
	4.854123604822390e-04
	3.684226109717528e-01
	9.682592560896848e-04
	2.312373928238855e-04
	1.068492905672324e-04
	4.169856360987977e-14
	3.594643693666558e-14
	3.017538070835776e-15
	2.734588602378422e-15
	2.618968899612312e-15
	2.436416659932972e-14
	5.323542801665246e-15
	5.125677218810930e-15
	3.646535423647613e-15
	2.839086693950783e-15

 31	3.100000000000001e-01
	4.757401868472645e-04
	3.683656455273263e-01
	9.661198834933554e-04
	2.298362708006564e-04
	1.012561920851645e-04
	4.157356352209500e-14
	3.593817755370479e-14
	2.878039278193308e-15
	2.757346690196907e-15
	2.500397897227169e-15
	2.436261559413318e-14
	5.322227649076866e-15
	5.121063040997017e-15
	3.646535423647613e-15
	2.839086693950783e-15

 32	3.200000000000001e-01
	4.660910633336803e-04
	3.683086774731523e-01
	9.636489612064044e-04
	2.283740917039123e-04
	9.590178021098688e-05
	4.145028600018885e-14
	3.592778654800916e-14
	2.742518910883714e-15
	2.779980541295988e-15
	2.385054153038558e-15
	2.436028055893295e-14
	5.320890132034720e-15
	5.116380069643282e-15
	3.646535423647613e-15
	2.839086693950783e-15

 33	3.300000000000001e-01
	4.564683130803567e-04
	3.682517070081173e-01
	9.608450464354189e-04
	2.268508989552757e-04
	9.078239529203896e-05
	4.132882135647863e-14
	3.591531140183192e-14
	2.611034133267043e-15
	2.802475821379672e-15
	2.272997093792157e-15
	2.435717135571030e-14
	5.319529832667737e-15
	5.111627826817018e-15
	3.646535423647613e-15
	2.839086693950783e-15

 34	3.400000000000001e-01
	4.468752710797168e-04
	3.681947343378632e-01
	9.577072108986232e-04
	2.252668226124864e-04
	8.589391376565246e-05
	4.120925200779108e-14
	3.590080226161744e-14
	2.483630698298247e-15
	2.824819047875397e-15
	2.164276589762746e-15
	2.435329788998451e-14
	5.318146325727092e-15
	5.106805857566492e-15
	3.646535423647613e-15
	2.839086693950783e-15

 35	3.500000000000001e-01
	4.373152790491324e-04
	3.681377596750651e-01
	9.542350369832600e-04
	2.236220790882215e-04
	8.123177381095495e-05
	4.109165198619778e-14
	3.588431146152640e-14
	2.360342851460352e-15
	2.846997673211030e-15
	2.058932801106256e-15
	2.434866993368315e-14
	5.316739178510551e-15
	5.101913731006076e-15
	3.646535423647613e-15
	2.839086693950783e-15

 36	3.600000000000002e-01
	4.277916803567990e-04
	3.680807832397243e-01
	9.504286107087057e-04
	2.219169704100552e-04
	7.679100375655135e-05
	4.097608649932609e-14
	3.586589301876166e-14
	2.241193317398752e-15
	2.869000163165683e-15
	1.956996095037254e-15
	2.434329694225441e-14
	5.315307950789656e-15
	5.096951041399543e-15
	3.646535423647613e-15
	2.839086693950783e-15

 37	3.700000000000002e-01
	4.183078150336470e-04
	3.680238052594730e-01
	9.462885115646724e-04
	2.201518830287230e-04
	7.256625296918753e-05
	4.086261154412342e-14
	3.584560210507101e-14
	2.126193369446711e-15
	2.890816069605688e-15
	1.858487034853910e-15
	2.433718786731002e-14
	5.313852194740023e-15
	5.091917409238908e-15
	3.646535423647613e-15
	2.839086693950783e-15

 38	3.800000000000002e-01
	4.088670149020676e-04
	3.679668259698974e-01
	9.418157993358469e-04
	2.183272861877457e-04
	6.855182491532337e-05
	4.075127357717535e-14
	3.582349449907519e-14
	2.015342981095888e-15
	2.912436097004268e-15
	1.763416440842931e-15
	2.433035096608694e-14
	5.312371454874991e-15
	5.086812482316089e-15
	3.646535423647613e-15
	2.839086693950783e-15

 39	3.900000000000002e-01
	3.994725988508314e-04
	3.679098456148754e-01
	9.370119980651964e-04
	2.164437298733959e-04
	6.474171205885416e-05
	4.064210924381122e-14
	3.579962602424115e-14
	1.908631057330705e-15
	2.933852162239370e-15
	1.671785522091380e-15
	2.432279360897972e-14
	5.310865267982958e-15
	5.081635936784578e-15
	3.646535423647613e-15
	2.839086693950783e-15

 40	4.000000000000002e-01
	3.901278682839026e-04
	3.678528644469313e-01
	9.318790773475708e-04
	2.145018423695935e-04
	6.112963223486126e-05
	4.053514516731069e-14
	3.577405197738963e-14
	1.806035742640774e-15
	2.955057447280281e-15
	1.583586077236561e-15
	2.431452208632801e-14
	5.309333163068697e-15
	5.076387478208222e-15
	3.646535423647613e-15
	2.839086693950783e-15

 41	4.100000000000002e-01
	3.808361027687328e-04
	3.677958827276099e-01
	9.264194311820166e-04
	2.125023274477706e-04
	5.770906612173740e-05
	4.043039779855415e-14
	3.574682655258900e-14
	1.707524801472064e-15
	2.976046444493096e-15
	1.498800761218639e-15
	2.430554141554450e-14
	5.307774661298944e-15
	5.071066842594138e-15
	3.646535423647613e-15
	2.839086693950783e-15

 42	4.200000000000002e-01
	3.716005559071498e-04
	3.677389007278683e-01
	9.206358546448713e-04
	2.104459612267089e-04
	5.447329542269339e-05
	4.032787332546960e-14
	3.571800226513911e-14
	1.613056065903523e-15
	2.996814994426965e-15
	1.417403414188186e-15
	2.429585514953830e-14
	5.306189275952630e-15
	5.065673797406702e-15
	3.646535423647613e-15
	2.839086693950783e-15

 43	4.300000000000002e-01
	3.624244514492131e-04
	3.676819187284897e-01
	9.145315186753775e-04
	2.083335887418099e-04
	5.141544136289651e-05
	4.022756764063097e-14
	3.568762938008968e-14
	1.522577944460193e-15
	3.017360316081100e-15
	1.339359447882054e-15
	2.428546518722647e-14
	5.304576512376075e-15
	5.060208142559532e-15
	3.646535423647613e-15
	2.839086693950783e-15

 44	4.400000000000002e-01
	3.533109796673433e-04
	3.676249370205172e-01
	9.081099432907044e-04
	2.061661202672081e-04
	4.852850311031446e-05
	4.012946636438536e-14
	3.565575534937970e-14
	1.436029985217892e-15
	3.037681029787772e-15
	1.264626284035311e-15
	2.427437158674250e-14
	5.302935867943519e-15
	5.054669711382294e-15
	3.646535423647613e-15
	2.839086693950783e-15

 45	4.500000000000002e-01
	3.442632940047422e-04
	3.675679559057131e-01
	9.013749695672214e-04
	2.039445274372483e-04
	4.580539573675204e-05
	4.003354491994048e-14
	3.562242426121526e-14
	1.353343485734786e-15
	3.057777172990437e-15
	1.193153838761516e-15
	2.426257238173314e-14
	5.301266832023356e-15
	5.049058371559154e-15
	3.646535423647613e-15
	2.839086693950783e-15

 46	4.600000000000002e-01
	3.352845080087291e-04
	3.675109756970388e-01
	8.943307307395653e-04
	2.016698392163563e-04
	4.323898735040443e-05
	3.993976865595937e-14
	3.558767630475728e-14
	1.274442141873248e-15
	3.077650209328840e-15
	1.124885046321875e-15
	2.425006340090612e-14
	5.299568885950466e-15
	5.043374026035664e-15
	3.646535423647613e-15
	2.839086693950783e-15

 47	4.700000000000003e-01
	3.263776925559849e-04
	3.674539967191652e-01
	8.869816227777138e-04
	1.993431377678541e-04
	4.082213505200346e-05
	3.984809301138912e-14
	3.555154725254756e-14
	1.199242727261198e-15
	3.097303031580361e-15
	1.059756415325539e-15
	2.423683809073361e-14
	5.297841503005057e-15
	5.037616613890876e-15
	3.646535423647613e-15
	2.839086693950783e-15

 48	4.800000000000003e-01
	3.175458733731231e-04
	3.673970193090066e-01
	8.793322748053171e-04
	1.969655542732046e-04
	3.854771939294666e-05
	3.975846371652233e-14
	3.551406796240946e-14
	1.127655794988358e-15
	3.116739959124518e-15
	9.976986101652741e-16
	2.422288734095454e-14
	5.296084148398406e-15
	5.031786111171464e-15
	3.646535423647613e-15
	2.839086693950783e-15

 49	4.900000000000003e-01
	3.087920288523719e-04
	3.673400438162857e-01
	8.713875197196350e-04
	1.945382647529752e-04
	3.640867704488735e-05
	3.967081702365601e-14
	3.547526389979704e-14
	1.059586393139955e-15
	3.135966730719016e-15
	9.386370503967690e-16
	2.420819931223752e-14
	5.294296279265979e-15
	5.025882531684676e-15
	3.646535423647613e-15
	2.839086693950783e-15

 50	5.000000000000002e-01
	3.001190881585751e-04
	3.672830706041306e-01
	8.631523653648036e-04
	1.920624859399760e-04
	3.439803142542052e-05
	3.958507996018027e-14
	3.543515468076975e-14
	9.949347859330677e-16
	3.154990493477454e-15
	8.824925208141935e-16
	2.419275926508044e-14
	5.292477344668336e-15
	5.019905927746946e-15
	3.646535423647613e-15
	2.839086693950783e-15

 51	5.100000000000002e-01
	2.915299296202757e-04
	3.672261000497026e-01
	8.546319665962893e-04
	1.895394712533650e-04
	3.250892106285086e-05
	3.950117059651101e-14
	3.539375363495319e-14
	9.335971725291691e-16
	3.173819789028658e-15
	8.291817851531681e-16
	2.417654938873422e-14
	5.290626785600310e-15
	5.013856390885086e-15
	3.646535423647613e-15
	2.839086693950783e-15

 52	5.200000000000002e-01
	2.830273793943712e-04
	3.671691325448617e-01
