Title: ** sch_path: /home/designer/shared/amaru/analog/tb/tb_nmos_lv_vds.sch
Date: Wed Sep  3 23:36:32  2025
Command: ngspice-44.2, Build Sun May  4 23:56:50 UTC 2025
Plotname: DC transfer characteristic
Flags: real
No. Variables: 3
No. Points: 151
Variables:
	0	v(v-sweep)	voltage
	1	i(ids)	current
	2	ro	notype
Values:
 0	0.000000000000000e+00
	6.468809389589381e-05
	8.061381184780501e+05

 1	1.000000000000000e-02
	6.467564125305959e-05
	7.999703368674562e+05

 2	2.000000000000000e-02
	6.466309296888655e-05
	7.938469950757845e+05

 3	3.000000000000000e-02
	6.465044748130753e-05
	7.877185260930961e+05

 4	4.000000000000000e-02
	6.463770318898738e-05
	7.815848805033476e+05

 5	5.000000000000000e-02
	6.462485844997018e-05
	7.754460072172247e+05

 6	6.000000000000000e-02
	6.461191158026949e-05
	7.693018534582409e+05

 7	7.000000000000001e-02
	6.459886085239506e-05
	7.631523646770701e+05

 8	8.000000000000000e-02
	6.458570449381374e-05
	7.569974844822360e+05

 9	9.000000000000000e-02
	6.457244068534037e-05
	7.508371545275012e+05

 10	9.999999999999999e-02
	6.455906755945401e-05
	7.446713144559800e+05

 11	1.100000000000000e-01
	6.454558319853814e-05
	7.384999017810620e+05

 12	1.200000000000000e-01
	6.453198563303565e-05
	7.323228517787476e+05

 13	1.300000000000000e-01
	6.451827283951900e-05
	7.261400974305951e+05

 14	1.400000000000000e-01
	6.450444273866751e-05
	7.199515692843382e+05

 15	1.500000000000000e-01
	6.449049319314656e-05
	7.137571953286622e+05

 16	1.600000000000000e-01
	6.447642200538329e-05
	7.075569009018223e+05

 17	1.700000000000000e-01
	6.446222691523378e-05
	7.013506085456689e+05

 18	1.800000000000000e-01
	6.444790559753205e-05
	6.951382378746357e+05

 19	1.900000000000000e-01
	6.443345565951758e-05
	6.889197054451752e+05

 20	2.000000000000000e-01
	6.441887463813008e-05
	6.826949246044067e+05

 21	2.100000000000000e-01
	6.440415999716651e-05
	6.764638053265529e+05

 22	2.200000000000001e-01
	6.438930912428807e-05
	6.702262540425978e+05

 23	2.300000000000001e-01
	6.437431932787108e-05
	6.639821735111502e+05

 24	2.400000000000001e-01
	6.435918783369040e-05
	6.577314625695121e+05

 25	2.500000000000001e-01
	6.434391178142063e-05
	6.514740159855147e+05

 26	2.600000000000001e-01
	6.432848822095182e-05
	6.452097242754668e+05

 27	2.700000000000001e-01
	6.431291410849737e-05
	6.389384734298819e+05

 28	2.800000000000001e-01
	6.429718630248597e-05
	6.326601447196426e+05

 29	2.900000000000001e-01
	6.428130155922123e-05
	6.263746144828802e+05

 30	3.000000000000001e-01
	6.426525652829403e-05
	6.200817538588295e+05

 31	3.100000000000001e-01
	6.424904774772696e-05
	6.137814285000201e+05

 32	3.200000000000001e-01
	6.423267163883448e-05
	6.074734983283158e+05

 33	3.300000000000001e-01
	6.421612450077867e-05
	6.011578172403681e+05

 34	3.400000000000001e-01
	6.419940250479608e-05
	5.948342327822539e+05

 35	3.500000000000001e-01
	6.418250168807260e-05
	5.885025858431030e+05

 36	3.600000000000002e-01
	6.416541794724083e-05
	5.821627103356740e+05

 37	3.700000000000002e-01
	6.414814703147072e-05
	5.758144327962605e+05

 38	3.800000000000002e-01
	6.413068453511902e-05
	5.694575720258040e+05

 39	3.900000000000002e-01
	6.411302588990990e-05
	5.630919387173053e+05

 40	4.000000000000002e-01
	6.409516635660352e-05
	5.567173350130320e+05

 41	4.100000000000002e-01
	6.407710101611460e-05
	5.503335540907898e+05

 42	4.200000000000002e-01
	6.405882476003661e-05
	5.439403797085297e+05

 43	4.300000000000002e-01
	6.404033228052134e-05
	5.375375857060767e+05

 44	4.400000000000002e-01
	6.402161805946007e-05
	5.311249355061501e+05

 45	4.500000000000002e-01
	6.400267635690905e-05
	5.247021816370870e+05

 46	4.600000000000002e-01
	6.398350119869613e-05
	5.182690651299660e+05

 47	4.700000000000003e-01
	6.396408636312854e-05
	5.118253149570553e+05

 48	4.800000000000003e-01
	6.394442536673639e-05
	5.053706474845938e+05

 49	4.900000000000003e-01
	6.392451144895505e-05
	4.989047657942675e+05

 50	5.000000000000002e-01
	6.390433755565253e-05
	4.924273590809539e+05

 51	5.100000000000002e-01
	6.388389632140136e-05
	4.859381019725571e+05

 52	5.200000000000002e-01
	6.386318005036777e-05
	4.794366538391919e+05

 53	5.300000000000002e-01
	6.384218069569806e-05
	4.729226581117083e+05

 54	5.400000000000003e-01
	6.382088983724951e-05
	4.663957415254190e+05

 55	5.500000000000003e-01
	6.379929865750751e-05
	4.598555133951365e+05

 56	5.600000000000003e-01
	6.377739791551014e-05
	4.533015648685762e+05

 57	5.700000000000003e-01
	6.375517791857779e-05
	4.467334681449040e+05

 58	5.800000000000003e-01
	6.373262849162289e-05
	4.401507757311310e+05

 59	5.900000000000003e-01
	6.370973894379290e-05
	4.335530196669924e+05

 60	6.000000000000003e-01
	6.368649803215714e-05
	4.269397107820840e+05

 61	6.100000000000003e-01
	6.366289392213079e-05
	4.203103379715500e+05

 62	6.200000000000003e-01
	6.363891414426963e-05
	4.136643674831237e+05

 63	6.300000000000003e-01
	6.361454554704186e-05
	4.070012422933414e+05

 64	6.400000000000003e-01
	6.358977424512017e-05
	4.003203815143391e+05

 65	6.500000000000004e-01
	6.356458556268047e-05
	3.936211798854517e+05

 66	6.600000000000004e-01
	6.353896397112571e-05
	3.869030074000796e+05

 67	6.700000000000004e-01
	6.351289302057697e-05
	3.801652090419109e+05

 68	6.800000000000004e-01
	6.348635526437319e-05
	3.734071046968166e+05

 69	6.900000000000004e-01
	6.345933217572846e-05
	3.666279892843718e+05

 70	7.000000000000004e-01
	6.343180405556057e-05
	3.598271331474293e+05

 71	7.100000000000004e-01
	6.340374993037342e-05
	3.530037827389127e+05

 72	7.200000000000004e-01
	6.337514743889538e-05
	3.461571616921706e+05

 73	7.300000000000004e-01
	6.334597270599871e-05
	3.392864723477096e+05

 74	7.400000000000004e-01
	6.331620020217943e-05
	3.323908978153825e+05

 75	7.500000000000004e-01
	6.328580258662586e-05
	3.254696046818885e+05

 76	7.600000000000005e-01
	6.325475053157333e-05
	3.185217464761480e+05

 77	7.700000000000005e-01
	6.322301252528386e-05
	3.115464680636327e+05

 78	7.800000000000005e-01
	6.319055465054054e-05
	3.045429110837271e+05

 79	7.900000000000005e-01
	6.315734033502066e-05
	2.975102206687685e+05

 80	8.000000000000005e-01
	6.312333006929744e-05
	2.904475536542162e+05

 81	8.100000000000005e-01
	6.308848108746159e-05
	2.833540885404337e+05

 82	8.200000000000005e-01
	6.305274700447201e-05
	2.762290375180588e+05

 83	8.300000000000005e-01
	6.301607740325916e-05
	2.690716609110611e+05

 84	8.400000000000005e-01
	6.297841736331887e-05
	2.618812844718145e+05

 85	8.500000000000005e-01
	6.293970692096090e-05
	2.546573199977491e+05

 86	8.600000000000005e-01
	6.289988044947646e-05
	2.473992898657742e+05

 87	8.700000000000006e-01
	6.285886594518101e-05
	2.401068561448878e+05

 88	8.800000000000006e-01
	6.281658420245913e-05
	2.327798550692177e+05

 89	8.900000000000006e-01
	6.277294785749231e-05
	2.254183377987836e+05

 90	9.000000000000006e-01
	6.272786027611267e-05
	2.180226185319770e+05

 91	9.100000000000006e-01
	6.268121425602166e-05
	2.105933312062283e+05

 92	9.200000000000006e-01
	6.263289050719623e-05
	2.031314962231975e+05

 93	9.300000000000006e-01
	6.258275586639791e-05
	1.956385988355973e+05

 94	9.400000000000006e-01
	6.253066119192288e-05
	1.881166810415633e+05

 95	9.500000000000006e-01
	6.247643887266155e-05
	1.805684490369867e+05

 96	9.600000000000006e-01
	6.241989987062525e-05
	1.729973984040988e+05

 97	9.700000000000006e-01
	6.236083019770747e-05
	1.654079592842310e+05

 98	9.800000000000006e-01
	6.229898670485895e-05
	1.578056636183785e+05

 99	9.900000000000007e-01
	6.223409203418778e-05
	1.501973360869439e+05

 100	1.000000000000001e+00
	6.216582855091924e-05
	1.425913094290149e+05

 101	1.010000000000001e+00
	6.209383103174600e-05
	1.349976631355318e+05

 102	1.020000000000001e+00
	6.201767783826638e-05
	1.274284817973834e+05

 103	1.030000000000001e+00
	6.193688024870362e-05
	1.198981252689275e+05

 104	1.040000000000001e+00
	6.185086955869453e-05
	1.124234970012389e+05

 105	1.050000000000001e+00
	6.175898149503134e-05
	1.050242891087748e+05

 106	1.060000000000001e+00
	6.166043741990342e-05
	9.772317308951498e+04

 107	1.070000000000001e+00
	6.155432174680888e-05
	9.054589421906983e+04

 108	1.080000000000001e+00
	6.143955495833523e-05
	8.352121701750161e+04

 109	1.090000000000001e+00
	6.131486163458603e-05
	7.668066153226775e+04

 110	1.100000000000001e+00
	6.117873300400736e-05
	7.005796944221974e+04

 111	1.110000000000001e+00
	6.102938376305715e-05
	6.368824997824535e+04

 112	1.120000000000001e+00
	6.086470333594722e-05
	5.760678282818924e+04

 113	1.130000000000001e+00
	6.068220242401851e-05
	5.184750065680891e+04

 114	1.140000000000001e+00
	6.047895667995342e-05
	4.644123476402710e+04

 115	1.150000000000001e+00
	6.025155065298739e-05
	4.141387393506514e+04

 116	1.160000000000001e+00
	5.999602673161392e-05
	3.678464211977566e+04

 117	1.170000000000001e+00
	5.970784548562765e-05
	3.256472551013645e+04

 118	1.180000000000001e+00
	5.938186525207761e-05
	2.875645812458168e+04

 119	1.190000000000001e+00
	5.901234954126089e-05
	2.535320338947409e+04

 120	1.200000000000001e+00
	5.859301030176772e-05
	2.233996027728518e+04

 121	1.210000000000001e+00
	5.811709280168936e-05
	1.969460342295079e+04

 122	1.220000000000001e+00
	5.757750368960135e-05
	1.738956917491434e+04

 123	1.230000000000001e+00
	5.696697805193167e-05
	1.539374811029293e+04

 124	1.240000000000001e+00
	5.627827494708178e-05
	1.367434721274542e+04

 125	1.250000000000001e+00
	5.550438538196065e-05
	1.219853239544504e+04

 126	1.260000000000001e+00
	5.463873345539634e-05
	1.093473399256229e+04

 127	1.270000000000001e+00
	5.367535140513018e-05
	9.853572107397078e+03

 128	1.280000000000001e+00
	5.260901268185215e-05
	8.928418883392289e+03

 129	1.290000000000001e+00
	5.143531313394173e-05
	8.135653267863241e+03

 130	1.300000000000001e+00
	5.015069749295364e-05
	7.454680904968029e+03

 131	1.310000000000001e+00
	4.875243505304745e-05
	6.867792363587019e+03

 132	1.320000000000001e+00
	4.723855354025635e-05
	6.359923386278550e+03

 133	1.330000000000001e+00
	4.560774308346334e-05
	5.918366920095903e+03

 134	1.340000000000001e+00
	4.385924295170714e-05
	5.532472354296160e+03

 135	1.350000000000001e+00
	4.199272275996017e-05
	5.193354894629730e+03

 136	1.360000000000001e+00
	4.000816779782516e-05
	4.893628246863528e+03

 137	1.370000000000001e+00
	3.790577561336840e-05
	4.627166803362660e+03

 138	1.380000000000001e+00
	3.568586846220021e-05
	4.388898927844254e+03

 139	1.390000000000001e+00
	3.334882401142669e-05
	4.174630165509933e+03

 140	1.400000000000001e+00
	3.089502491269574e-05
	3.980893732629491e+03

 141	1.410000000000001e+00
	2.832482655174334e-05
	3.804825013710037e+03

 142	1.420000000000001e+00
	2.563854138771530e-05
	3.644056677099346e+03

 143	1.430000000000001e+00
	2.283643771144691e-05
	3.496631175123782e+03

 144	1.440000000000001e+00
	1.991875025209698e-05
	3.360927674057529e+03

 145	1.450000000000001e+00
	1.688569971896427e-05
	3.235600790245326e+03

 146	1.460000000000001e+00
	1.373751798750604e-05
	3.119528895930109e+03

 147	1.470000000000001e+00
	1.047447524654690e-05
	3.011770313722158e+03

 148	1.480000000000001e+00
	7.096905352181013e-06
	2.911526998632887e+03

 149	1.490000000000001e+00
	3.605227594235801e-06
	2.818129735075978e+03

 150	1.500000000000001e+00
	4.069827309691469e-19
	2.730746351536730e+03

Title: ** sch_path: /home/designer/shared/amaru/analog/tb/tb_nmos_lv_vds.sch
Date: Wed Sep  3 23:36:32  2025
Command: ngspice-44.2, Build Sun May  4 23:56:50 UTC 2025
Plotname: DC transfer characteristic
Flags: real
No. Variables: 3
No. Points: 151
Variables:
	0	v(v-sweep)	voltage
	1	i(ids)	current
	2	ro	notype
Values:
 0	0.000000000000000e+00
	8.327471763189037e-05
	4.928801989427911e+05

 1	1.000000000000000e-02
	8.325435950603022e-05
	4.895398605129230e+05

 2	2.000000000000000e-02
	8.323386294034586e-05
	4.862206625492109e+05

 3	3.000000000000000e-02
	8.321322591887426e-05
	4.828986343578619e+05

 4	4.000000000000000e-02
	8.319244638089214e-05
	4.795737628901681e+05

 5	5.000000000000000e-02
	8.317152221957372e-05
	4.762460348942707e+05

 6	6.000000000000000e-02
	8.315045128059815e-05
	4.729154368979415e+05

 7	7.000000000000001e-02
	8.312923136070223e-05
	4.695819551799568e+05

 8	8.000000000000000e-02
	8.310786020617679e-05
	4.662455757827011e+05

 9	9.000000000000000e-02
	8.308633551130693e-05
	4.629062845234297e+05

 10	9.999999999999999e-02
	8.306465491675068e-05
	4.595640669386417e+05

 11	1.100000000000000e-01
	8.304281600784960e-05
	4.562189083062726e+05

 12	1.200000000000000e-01
	8.302081631287902e-05
	4.528707936497739e+05

 13	1.300000000000000e-01
	8.299865330122236e-05
	4.495197076919339e+05

 14	1.400000000000000e-01
	8.297632438147363e-05
	4.461656348695832e+05

 15	1.500000000000000e-01
	8.295382689946274e-05
	4.428085593223732e+05

 16	1.600000000000000e-01
	8.293115813619913e-05
	4.394484648729434e+05

 17	1.700000000000000e-01
	8.290831530572948e-05
	4.360853350264443e+05

 18	1.800000000000000e-01
	8.288529555290729e-05
	4.327191529540535e+05

 19	1.900000000000000e-01
	8.286209595106615e-05
	4.293499014592170e+05

 20	2.000000000000000e-01
	8.283871349959360e-05
	4.259775630045767e+05

 21	2.100000000000000e-01
	8.281514512140523e-05
	4.226021196770123e+05

 22	2.200000000000001e-01
	8.279138766030230e-05
	4.192235531660164e+05

 23	2.300000000000001e-01
	8.276743787821969e-05
	4.158418447562587e+05

 24	2.400000000000001e-01
	8.274329245234716e-05
	4.124569753164641e+05

 25	2.500000000000001e-01
	8.271894797212790e-05
	4.090689252741092e+05

 26	2.600000000000001e-01
	8.269440093611527e-05
	4.056776745934263e+05

 27	2.700000000000001e-01
	8.266964774869301e-05
	4.022832027813249e+05

 28	2.800000000000001e-01
	8.264468471664172e-05
	3.988854888326098e+05

 29	2.900000000000001e-01
	8.261950804554529e-05
	3.954845112136565e+05

 30	3.000000000000001e-01
	8.259411383603094e-05
	3.920802478739585e+05

 31	3.100000000000001e-01
	8.256849807983432e-05
	3.886726761879607e+05

 32	3.200000000000001e-01
	8.254265665566993e-05
	3.852617729370641e+05

 33	3.300000000000001e-01
	8.251658532491050e-05
	3.818475142873264e+05

 34	3.400000000000001e-01
	8.249027972704875e-05
	3.784298757517786e+05

 35	3.500000000000001e-01
	8.246373537494217e-05
	3.750088321699490e+05

 36	3.600000000000002e-01
	8.243694764981667e-05
	3.715843576643249e+05

 37	3.700000000000002e-01
	8.240991179602267e-05
	3.681564256239060e+05

 38	3.800000000000002e-01
	8.238262291552443e-05
	3.647250086363423e+05

 39	3.900000000000002e-01
	8.235507596210281e-05
	3.612900784766324e+05

 40	4.000000000000002e-01
	8.232726573526548e-05
	3.578516060516924e+05

 41	4.100000000000002e-01
	8.229918687382774e-05
	3.544095613491722e+05

 42	4.200000000000002e-01
	8.227083384916212e-05
	3.509639134068661e+05

 43	4.300000000000002e-01
	8.224220095807972e-05
	3.475146302340783e+05

 44	4.400000000000002e-01
	8.221328231532733e-05
	3.440616787883262e+05

 45	4.500000000000002e-01
	8.218407184567628e-05
	3.406050248840690e+05

 46	4.600000000000002e-01
	8.215456327556329e-05
	3.371446331443334e+05

 47	4.700000000000003e-01
	8.212475012427300e-05
	3.336804669384997e+05

 48	4.800000000000003e-01
	8.209462569460898e-05
	3.302124882905288e+05

 49	4.900000000000003e-01
	8.206418306303453e-05
	3.267406578078147e+05

 50	5.000000000000002e-01
	8.203341506923353e-05
	3.232649345979412e+05

 51	5.100000000000002e-01
	8.200231430506091e-05
	3.197852761743190e+05

 52	5.200000000000002e-01
	8.197087310282637e-05
	3.163016383504446e+05

 53	5.300000000000002e-01
	8.193908352287368e-05
	3.128139751443560e+05

 54	5.400000000000003e-01
	8.190693734039513e-05
	3.093222386472960e+05

 55	5.500000000000003e-01
	8.187442603142572e-05
	3.058263789087533e+05

 56	5.600000000000003e-01
	8.184154075795720e-05
	3.023263438034312e+05

 57	5.700000000000003e-01
	8.180827235209898e-05
	2.988220788682412e+05

 58	5.800000000000003e-01
	8.177461129921122e-05
	2.953135271577899e+05

 59	5.900000000000003e-01
	8.174054771993435e-05
	2.918006290688539e+05

 60	6.000000000000003e-01
	8.170607135101501e-05
	2.882833221434607e+05

 61	6.100000000000003e-01
	8.167117152483817e-05
	2.847615408723017e+05

 62	6.200000000000003e-01
	8.163583714755223e-05
	2.812352164784050e+05

 63	6.300000000000003e-01
	8.160005667567227e-05
	2.777042766615332e+05

 64	6.400000000000003e-01
	8.156381809102047e-05
	2.741686453375173e+05

 65	6.500000000000004e-01
	8.152710887387174e-05
	2.706282423691649e+05

 66	6.600000000000004e-01
	8.148991597413528e-05
	2.670829832289452e+05

 67	6.700000000000004e-01
	8.145222578039193e-05
	2.635327786670761e+05

 68	6.800000000000004e-01
	8.141402408660175e-05
	2.599775343437744e+05

 69	6.900000000000004e-01
	8.137529605625064e-05
	2.564171504066145e+05

 70	7.000000000000004e-01
	8.133602618369906e-05
	2.528515210504263e+05

 71	7.100000000000004e-01
	8.129619825246084e-05
	2.492805340266953e+05

 72	7.200000000000004e-01
	8.125579529010727e-05
	2.457040700969809e+05

 73	7.300000000000004e-01
	8.121479951945611e-05
	2.421220024421708e+05

 74	7.400000000000004e-01
	8.117319230566856e-05
	2.385341960179731e+05

 75	7.500000000000004e-01
	8.113095409882512e-05
	2.349405068330339e+05

 76	7.600000000000005e-01
	8.108806437149664e-05
	2.313407811538287e+05

 77	7.700000000000005e-01
	8.104450155076918e-05
	2.277348546469783e+05

 78	7.800000000000005e-01
	8.100024294411345e-05
	2.241225514174697e+05

 79	7.900000000000005e-01
	8.095526465839263e-05
	2.205036829387146e+05

 80	8.000000000000005e-01
	8.090954151122374e-05
	2.168780468961915e+05

 81	8.100000000000005e-01
	8.086304693379474e-05
	2.132454258873943e+05

 82	8.200000000000005e-01
	8.081575286409674e-05
	2.096055859906411e+05

 83	8.300000000000005e-01
	8.076762962940624e-05
	2.059582751855822e+05

 84	8.400000000000005e-01
	8.071864581665240e-05
	2.023032215907581e+05

 85	8.500000000000005e-01
	8.066876812911605e-05
	1.986401315227307e+05

 86	8.600000000000005e-01
	8.061796122765881e-05
	1.949686873337265e+05

 87	8.700000000000006e-01
	8.056618755439142e-05
	1.912885450178390e+05

 88	8.800000000000006e-01
	8.051340713636110e-05
	1.875993315478346e+05

 89	8.900000000000006e-01
	8.045957736641802e-05
	1.839006419192259e+05

 90	9.000000000000006e-01
	8.040465275795722e-05
	1.801920358693608e+05

 91	9.100000000000006e-01
	8.034858466963479e-05
	1.764730342244435e+05

 92	9.200000000000006e-01
	8.029132099547070e-05
	1.727431148446298e+05

 93	9.300000000000006e-01
	8.023280581490019e-05
	1.690017081215818e+05

 94	9.400000000000006e-01
	8.017297899631403e-05
	1.652481919726349e+05

 95	9.500000000000006e-01
	8.011177574636357e-05
	1.614818862874926e+05

 96	9.600000000000006e-01
	8.004912609578256e-05
	1.577020467740099e+05

 97	9.700000000000006e-01
	7.998495431056660e-05
	1.539078581360902e+05

 98	9.800000000000006e-01
	7.991917821500369e-05
	1.500984265433747e+05

 99	9.900000000000007e-01
	7.985170841012260e-05
	1.462727713215516e+05

 100	1.000000000000001e+00
	7.978244736742828e-05
	1.424298158241351e+05

 101	1.010000000000001e+00
	7.971128837317827e-05
	1.385683774486752e+05

 102	1.020000000000001e+00
	7.963811429253601e-05
	1.346871567773944e+05

 103	1.030000000000001e+00
	7.956279611542681e-05
	1.307847258657618e+05

 104	1.040000000000001e+00
	7.948519123621115e-05
	1.268595157529713e+05

 105	1.050000000000001e+00
	7.940514140674145e-05
	1.229098033573191e+05

 106	1.060000000000001e+00
	7.932247028593954e-05
	1.189336980496798e+05

 107	1.070000000000001e+00
	7.923698048743962e-05
	1.149291284100922e+05

 108	1.080000000000001e+00
	7.914844999816153e-05
	1.108938299831994e+05

 109	1.090000000000001e+00
	7.905662780232603e-05
	1.068253353270254e+05

 110	1.100000000000001e+00
	7.896122849364883e-05
	1.027209683925580e+05

 111	1.110000000000001e+00
	7.886192558803646e-05
	9.857784639076120e+04

 112	1.120000000000001e+00
	7.875834315244630e-05
	9.439289403282973e+04

 113	1.130000000000001e+00
