Title: ** sch_path: /home/designer/shared/amaru/analog/tb/tb_pmos_lv_vgs.sch
Date: Wed Sep  3 23:24:05  2025
Command: ngspice-44.2, Build Sun May  4 23:56:50 UTC 2025
Plotname: DC transfer characteristic
Flags: real
No. Variables: 16
No. Points: 151
Variables:
	0	v(v-sweep)	voltage
	1	i(ids)	current
	2	v(vth)	voltage
	3	gm	admittance
	4	gmb	admittance
	5	gds	admittance
	6	cgg	capacitance
	7	cgs	capacitance
	8	cgd	capacitance
	9	cgb	capacitance
	10	cdd	capacitance
	11	css	capacitance
	12	cgsol	capacitance
	13	cgdol	capacitance
	14	cjs	capacitance
	15	cjd	capacitance
Values:
 0	0.000000000000000e+00
	2.827848989640888e-03
	4.116299379178053e-01
	3.311100175021121e-03
	6.030227017959625e-04
	1.675452323798167e-03
	5.114882521714900e-15
	4.107612002540055e-15
	6.919928087499910e-16
	3.152777104248540e-16
	6.472660993600728e-16
	2.730656577088400e-15
	5.354392510223071e-15
	5.235136939224045e-15
	3.646535423647613e-15
	2.839086693950783e-15

 1	1.000000000000000e-02
	2.794666931324302e-03
	4.115758805097368e-01
	3.325270454885448e-03
	6.053539588011000e-04
	1.640104103153446e-03
	5.109172920550799e-15
	4.113359699842986e-15
	6.791164636398803e-16
	3.166967570679319e-16
	6.369299019575030e-16
	2.733403429636993e-15
	5.353587030507751e-15
	5.232291979329689e-15
	3.646535423647613e-15
	2.839086693950783e-15

 2	2.000000000000000e-02
	2.761344418147992e-03
	4.115218170011446e-01
	3.339188411350193e-03
	6.076121032106751e-04
	1.604998215417042e-03
	5.103314174991583e-15
	4.118981652813607e-15
	6.661946832492411e-16
	3.181378389287353e-16
	6.265491928138952e-16
	2.736100848201518e-15
	5.352768726619302e-15
	5.229398331765727e-15
	3.646535423647613e-15
	2.839086693950783e-15

 3	3.000000000000000e-02
	2.727884056541216e-03
	4.114677474679243e-01
	3.352837313901316e-03
	6.097938752692101e-04
	1.570144831127648e-03
	5.097305380813376e-15
	4.124473546441917e-15
	6.532306259681767e-16
	3.196012084032829e-16
	6.161263219823044e-16
	2.738747271898701e-15
	5.351937360707358e-15
	5.226455268237940e-15
	3.646535423647613e-15
	2.839086693950783e-15

 4	4.000000000000000e-02
	2.694288622989370e-03
	4.114136719881389e-01
	3.366199880824108e-03
	6.118959351387011e-04
	1.535554189564987e-03
	5.091145695855919e-15
	4.129831011316403e-15
	6.402275703136812e-16
	3.210871142258356e-16
	6.056637396451838e-16
	2.741341121441563e-15
	5.351092690234893e-15
	5.223462058242218e-15
	3.646535423647613e-15
	2.839086693950783e-15

 5	5.000000000000000e-02
	2.660561069574201e-03
	4.113595906420925e-01
	3.379258273720379e-03
	6.139148634801275e-04
	1.501236586895238e-03
	5.084834342999099e-15
	4.135049625969162e-15
	6.271889159416421e-16
	3.225958010882948e-16
	5.951639974391421e-16
	2.743880799657883e-15
	5.350234467892246e-15
	5.220417969558868e-15
	3.646535423647613e-15
	2.839086693950783e-15

 6	6.000000000000000e-02
	2.626704529564249e-03
	4.113055035124037e-01
	3.391994092955970e-03
	6.158471622679433e-04
	1.467202363510600e-03
	5.078370613143569e-15
	4.140124919405624e-15
	6.141181844887215e-16
	3.241275092492232e-16
	5.846297496638422e-16
	2.746364692026975e-15
	5.349362441510252e-15
	5.217322268771914e-15
	3.646535423647613e-15
	2.839086693950783e-15

 7	7.000000000000001e-02
	2.592722323045743e-03
	4.112514106840858e-01
	3.404388374132546e-03
	6.176892558545239e-04
	1.433461890547002e-03
	5.071753868185073e-15
	4.145052373820935e-15
	6.010190202307229e-16
	3.256824741334146e-16
	5.740637543639314e-16
	2.748791167231407e-15
	5.348476353972491e-15
	5.214174221813738e-15
	3.646535423647613e-15
	2.839086693950783e-15

 8	8.000000000000000e-02
	2.558617962583226e-03
	4.111973122446277e-01
	3.416421585682362e-03
	6.194374923021005e-04
	1.400025555566496e-03
	5.064983543971086e-15
	4.149827427504902e-15
	5.878951905433476e-16
	3.272609259228363e-16
	5.634688742722972e-16
	2.751158577719964e-15
	5.347575943126703e-15
	5.210973094535361e-15
	3.646535423647613e-15
	2.839086693950783e-15

 9	9.000000000000000e-02
	2.524395158898214e-03
	4.111432082840781e-01
	3.428073627689131e-03
	6.210881450007078e-04
	1.366903747393517e-03
	5.058059153227277e-15
	4.154445477936759e-15
	5.747505861511507e-16
	3.288630891393669e-16
	5.528480776026661e-16
	2.753465260277812e-15
	5.346660941695428e-15
	5.207718153302601e-15
	3.646535423647613e-15
	2.839086693950783e-15

 10	9.999999999999999e-02
	2.490057826553103e-03
	4.110890988951335e-01
	3.439323832042943e-03
	6.226374145903634e-04
	1.334106840097210e-03
	5.050980288440253e-15
	4.158901885069491e-15
	5.615892211497989e-16
	3.304891822209633e-16
	5.422044386789204e-16
	2.755709536598723e-15
	5.345731077185891e-15
	5.204408665618338e-15
	3.646535423647613e-15
	2.839086693950783e-15

 11	1.100000000000000e-01
	2.455610089626296e-03
	4.110349841732321e-01
	3.450150964041277e-03
	6.240814312068436e-04
	1.301645176115226e-03
	5.043746624681405e-15
	4.163191974802827e-15
	5.484152327865783e-16
	3.321394170920001e-16
	5.315411383881940e-16
	2.757889713853934e-15
	5.344786071799215e-15
	5.201043900770953e-15
	3.646535423647613e-15
	2.839086693950783e-15

 12	1.200000000000000e-01
	2.421056287363697e-03
	4.109808642166474e-01
	3.460533225552772e-03
	6.254162570704953e-04
	1.269529048518389e-03
	5.036357922355900e-15
	4.167311042642950e-15
	5.352328809837832e-16
	3.338139987291674e-16
	5.208614644443859e-16
	2.760004085251438e-15
	5.343825642338987e-15
	5.197623130509091e-15
	3.646535423647613e-15
	2.839086693950783e-15

 13	1.300000000000000e-01
	2.386400979790215e-03
	4.109267391265886e-01
	3.470448259864318e-03
	6.266378894376724e-04
	1.237768682419561e-03
	5.028814029859049e-15
	4.171254357545135e-15
	5.220465475892833e-16
	3.355131247246307e-16
	5.101688114483095e-16
	2.762050930578477e-15
	5.342849500119278e-15
	5.194145629742667e-15
	3.646535423647613e-15
	2.839086693950783e-15

 14	1.400000000000000e-01
	2.351648953263854e-03
	4.108726090073050e-01
	3.479873158335796e-03
	6.277422639348924e-04
	1.206374215534663e-03
	5.021114886120866e-15
	4.175017165934644e-15
	5.088607353382861e-16
	3.372369848479362e-16
	4.994666807303126e-16
	2.764028516719416e-15
	5.341857350872138e-15
	5.190610677270104e-15
	3.646535423647613e-15
	2.839086693950783e-15

 15	1.500000000000000e-01
	2.316805225953724e-03
	4.108184739661934e-01
	3.488784468990501e-03
	6.287252582957086e-04
	1.175355677908653e-03
	5.013260523018256e-15
	4.178594695899163e-15
	4.956800665103816e-16
	3.389857606087110e-16
	4.887586799609767e-16
	2.765935098140048e-15
	5.340848894654680e-15
	5.187017556531608e-15
	3.646535423647613e-15
	2.839086693950783e-15

 16	1.600000000000000e-01
	2.281875053221851e-03
	4.107643341139127e-01
	3.497158207172109e-03
	6.295826965203290e-04
	1.144722970824686e-03
	5.005251067632293e-15
	4.181982161544510e-15
	4.825092812654904e-16
	3.407596248222931e-16
	4.780485225150339e-16
	2.767768917328496e-15
	5.339823825755809e-15
	5.183365556388253e-15
	3.646535423647613e-15
	2.839086693950783e-15

 17	1.700000000000000e-01
	2.246863932887651e-03
	4.107101895644995e-01
	3.504969868402125e-03
	6.303103534780118e-04
	1.114485844920535e-03
	4.997086744326638e-15
	4.185174767503411e-15
	4.693532356426670e-16
	3.425587411805601e-16
	4.673400265736058e-16
	2.769528205181706e-15
	5.338781832602675e-15
	5.179653971926571e-15
	3.646535423647613e-15
	2.839086693950783e-15

 18	1.800000000000000e-01
	2.211777610352104e-03
	4.106560404354930e-01
	3.512194443573387e-03
	6.309039599717830e-04
	1.084653877542233e-03
	4.988767876620795e-15
	4.188167713584552e-15
	4.562168992054054e-16
	3.443832638308367e-16
	4.566371139494293e-16
	2.771211181325295e-15
	5.337722597666955e-15
	5.175882105288195e-15
	3.646535423647613e-15
	2.839086693950783e-15

 19	1.900000000000000e-01
	2.176622083557879e-03
	4.106018868480621e-01
	3.518806436617270e-03
	6.313592082848462e-04
	1.055236449372034e-03
	4.980294888830492e-15
	4.190956199547358e-15
	4.431053523174702e-16
	3.462333369656631e-16
	4.459438086198032e-16
	2.772816054353367e-15
	5.336645797371057e-15
	5.172049266524063e-15
	3.646535423647613e-15
	2.839086693950783e-15

 20	2.000000000000000e-01
	2.141403607759786e-03
	4.105477289271396e-01
	3.524779884782803e-03
	6.316717582273471e-04
	1.026242720374378e-03
	4.971668307444918e-15
	4.193535429984890e-15
	4.300237830332921e-16
	3.481090944267355e-16
	4.352642349517351e-16
	2.774341021973438e-15
	5.335551101994335e-15
	5.168154774472570e-15
	3.646535423647613e-15
	2.839086693950783e-15

 21	2.100000000000000e-01
	2.106128700078769e-03
	4.104935668015625e-01
	3.530088381666051e-03
	6.318372437014034e-04
	9.976816051111893e-04
	4.962888762208461e-15
	4.195900619294407e-15
	4.169774835873578e-16
	3.500106593266957e-16
	4.246026156038300e-16
	2.775784271040010e-15
	5.334438175579440e-15
	5.164197957660923e-15
	3.646535423647613e-15
	2.839086693950783e-15

 22	2.200000000000001e-01
	2.070804143811340e-03
	4.104394006042174e-01
	3.534705103127530e-03
	6.318512798014165e-04
	9.695617474857773e-04
	4.953956986872330e-15
	4.198046996712202e-15
	4.039718464674157e-16
	3.519381436927121e-16
	4.139632690895060e-16
	2.777143977458915e-15
	5.333306675838918e-15
	5.160178155228903e-15
	3.646535423647613e-15
	2.839086693950783e-15

 23	2.300000000000001e-01
	2.035436992464799e-03
	4.103852304721931e-01
	3.538602836233634e-03
	6.317094704654707e-04
	9.418914949826982e-04
	4.944873819578877e-15
	4.199969811385904e-15
	3.910123600567447e-16
	3.538916481362290e-16
	4.033506069862109e-16
	2.778418305942674e-15
	5.332156254062178e-15
	5.156094717874050e-15
	3.646535423647613e-15
	2.839086693950783e-15

 24	2.400000000000001e-01
	2.000034573487351e-03
	4.103310565469406e-01
	3.541754011355293e-03
	6.314074166922268e-04
	9.146788724794340e-04
	4.935640202838610e-15
	4.201664337453283e-15
	3.781046038315099e-16
	3.558712615538179e-16
	3.927691307755980e-16
	2.779605409595139e-15
	5.330986555022964e-15
	5.151947008817268e-15
	3.646535423647613e-15
	2.839086693950783e-15

 25	2.500000000000001e-01
	1.964604491660958e-03
	4.102768789744394e-01
	3.544130737553395e-03
	6.309407253362140e-04
	8.879315557148575e-04
	4.926257183057455e-15
	4.203125879093418e-15
	3.652542430998395e-16
	3.578770608641969e-16
	3.822234282998794e-16
	2.780703429301925e-15
	5.329797216887476e-15
	5.147734404787611e-15
	3.646535423647613e-15
	2.839086693950783e-15

 26	2.600000000000001e-01
	1.929154632123308e-03
	4.102226979053719e-01
	3.545704841375196e-03
	6.303050184922184e-04
	8.616568445082599e-04
	4.916725909568331e-15
	4.204349775510485e-15
	3.524670232702441e-16
	3.599091107876019e-16
	3.717181698200325e-16
	2.781710492900484e-15
	5.328587871123275e-15
	5.143456297025003e-15
	3.646535423647613e-15
	2.839086693950783e-15

 27	2.700000000000001e-01
	1.893693162984357e-03
	4.101685134953061e-01
	3.546447909179733e-03
	6.294959434778006e-04
	8.358616358323095e-04
	4.907047633118371e-15
	4.205331405806959e-15
	3.397487636380104e-16
	3.619674636734020e-16
	3.612581036620554e-16
	2.782624714101837e-15
	5.327358142409155e-15
	5.139112092299447e-15
	3.646535423647613e-15
	2.839086693950783e-15

 28	2.800000000000001e-01
	1.858228537501415e-03
	4.101143259048858e-01
	3.546331333102165e-03
	6.285091834198650e-04
	8.105523968525529e-04
	4.897223703759303e-15
	4.206066193696409e-15
	3.271053506793925e-16
	3.640521593835020e-16
	3.508480514381204e-16
	2.783444191132718e-15
	5.326107648546117e-15
	5.134701213945187e-15
	3.646535423647613e-15
	2.839086693950783e-15

 29	2.900000000000001e-01
	1.822769495776088e-03
	4.100601353000311e-01
	3.545326360757923e-03
	6.273404684492488e-04
	7.857351380558293e-04
	4.887255568085192e-15
	4.206549612001908e-15
	3.145427308447870e-16
	3.661632252384970e-16
	3.404929028302708e-16
	2.784167005064882e-15
	5.324836000369656e-15
	5.130223102908147e-15
	3.646535423647613e-15
	2.839086693950783e-15

 30	3.000000000000001e-01
	1.787325065934949e-03
	4.100059418521467e-01
	3.543404148776033e-03
	6.259855875034336e-04
	7.614153865992273e-04
	4.877144765757463e-15
	4.206777186878381e-15
	3.020669028435756e-16
	3.683006760355063e-16
	3.301976099251777e-16
	2.784791217794446e-15
	5.323542801663519e-15
	5.125677218804864e-15
	3.646535423647613e-15
	2.839086693950783e-15

 31	3.100000000000001e-01
	1.751904564755559e-03
	4.099517457383427e-01
	3.540535820238891e-03
	6.244404007346963e-04
	7.375981600210031e-04
	4.866892925253411e-15
	4.206744501691858e-15
	2.896839094150855e-16
	3.704645141464683e-16
	3.199671810896357e-16
	2.785314869631576e-15
	5.322227649075146e-15
	5.121063040990984e-15
	3.646535423647613e-15
	2.839086693950783e-15

 32	3.200000000000001e-01
	1.716517597698186e-03
	4.098975471416617e-01
	3.536692526090724e-03
	6.227008525171725e-04
	7.142879404637027e-04
	4.856501758769348e-15
	4.206447200480707e-15
	2.773998285819262e-16
	3.726547297067151e-16
	3.098066743775677e-16
	2.785735976456867e-15
	5.320890132033005e-15
	5.116380069637285e-15
	3.646535423647613e-15
	2.839086693950783e-15

 33	3.300000000000001e-01
	1.681174058303434e-03
	4.098433462513220e-01
	3.531845510560919e-03
	6.207629850419613e-04
	6.914886495690141e-04
	4.845973056205019e-15
	4.205880990915839e-15
	2.652207643840985e-16
	3.748713009050821e-16
	2.997211904607995e-16
	2.786052526396873e-15
	5.319529832666029e-15
	5.111627826811058e-15
	3.646535423647613e-15
	2.839086693950783e-15

 34	3.400000000000001e-01
	1.645884126915439e-03
	4.097891432629681e-01
	3.525966180630062e-03
	6.186229524856381e-04
	6.692036242121479e-04
	4.835308678150571e-15
	4.205041646669205e-15
	2.531528370945157e-16
	3.771141943868500e-16
	2.897158650773334e-16
	2.786262475967412e-15
	5.318146325725393e-15
	5.106805857560573e-15
	3.646535423647613e-15
	2.839086693950783e-15

 35	3.500000000000001e-01
	1.610658268690162e-03
	4.097349383789366e-01
	3.519026179546302e-03
	6.162770357322031e-04
	6.474355932515512e-04
	4.824510547791613e-15
	4.203925009089546e-15
	2.412021729191551e-16
	3.793833657829119e-16
	2.797958609926685e-16
	2.786363745628133e-15
	5.316739178508857e-15
	5.101913731000199e-15
	3.646535423647613e-15
	2.839086693950783e-15

 36	3.600000000000002e-01
	1.575507230848270e-03
	4.096807318085325e-01
	3.510997464377232e-03
	6.137216576240785e-04
	6.261866554770271e-04
	4.813580641641567e-15
	4.202526988075238e-15
	2.293748931875628e-16
	3.816787603787664e-16
	2.699663594714882e-16
	2.786354214687440e-15
	5.315307950787972e-15
	5.096951041393710e-15
	3.646535423647613e-15
	2.839086693950783e-15

 37	3.700000000000002e-01
	1.540442039132535e-03
	4.096265237683227e-01
	3.501852387558605e-03
	6.109533987120493e-04
	6.054582589456567e-04
	4.802520979004135e-15
	4.200843562022507e-15
	2.176771030426697e-16
	3.840003139389583e-16
	2.602325512593479e-16
	2.786231715491008e-15
	5.313852194738347e-15
	5.091917409233121e-15
	3.646535423647613e-15
	2.839086693950783e-15

 38	3.800000000000002e-01
	1.505473993429986e-03
	4.095723144824405e-01
	3.491563782374528e-03
	6.079690134684810e-04
	5.852511819004064e-04
	4.791333610060856e-15
	4.198870776715428e-15
	2.061148796416950e-16
	3.863479537037325e-16
	2.505996270760993e-16
	2.785994026821291e-15
	5.312371454873324e-15
	5.086812482310353e-15
	3.646535423647613e-15
	2.839086693950783e-15

 39	3.900000000000002e-01
	1.470614662519986e-03
	4.095181041829077e-01
	3.480105052275759e-03
	6.047654469226649e-04
	5.655655154704288e-04
	4.780020602470972e-15
	4.196604743011662e-15
	1.946942598835816e-16
	3.887215995757285e-16
	2.410727676254845e-16
	2.785638866429191e-15
	5.310865267981301e-15
	5.081635936778892e-15
	3.646535423647613e-15
	2.839086693950783e-15

 40	4.000000000000002e-01
	1.435875877910437e-03
	4.094638931099725e-01
	3.467450263912381e-03
	6.013398516702843e-04
	5.464006483551035e-04
	4.768584026361717e-15
	4.194041633162696e-15
	1.834212276818406e-16
	3.911211655171797e-16
	2.316571331279663e-16
	2.785163882611446e-15
	5.309333163067050e-15
	5.076387478202590e-15
	3.646535423647613e-15
	2.839086693950783e-15

 41	4.100000000000002e-01
	1.401269726725704e-03
	4.094096815124647e-01
	3.453574243725250e-03
	5.976896052033542e-04
	5.277552536951794e-04
	4.757025937577577e-15
	4.191177675592965e-15
	1.723017008056903e-16
	3.935465611789211e-16
	2.223578523869093e-16
	2.784566644739998e-15
	5.307774661297307e-15
	5.071066842588561e-15
	3.646535423647613e-15
	2.839086693950783e-15

 42	4.200000000000002e-01
	1.366808543611665e-03
	4.093554696481689e-01
	3.438452677906640e-03
	5.938123275000419e-04
	5.096272783342651e-04
	4.745348359046223e-15
	4.188009147944757e-15
	1.613415173164373e-16
	3.959976937850286e-16
	2.131800114014198e-16
	2.783844632640762e-15
	5.306189275951004e-15
	5.065673797401182e-15
	3.646535423647613e-15
	2.839086693950783e-15

 43	4.300000000000002e-01
	1.332504901625141e-03
	4.093012577842186e-01
	3.422062215505004e-03
	5.897058988071213e-04
	4.920139346717374e-04
	4.733553260106736e-15
	4.184532368177148e-15
	1.505464216304121e-16
	3.984744702991755e-16
	2.041286415425797e-16
	2.782995224709711e-15
	5.304576512374461e-15
	5.060208142554071e-15
	3.646535423647613e-15
	2.839086693950783e-15

 44	4.400000000000002e-01
	1.298371602077719e-03
	4.092470461975081e-01
	3.404380574412128e-03
	5.853684775413733e-04
	4.749116953041967e-04
	4.721642533632902e-15
	4.180743683487730e-15
	1.399220502445403e-16
	4.009767999006314e-16
	1.952087073136228e-16
	2.782015684644119e-15
	5.302935867941916e-15
	5.054669711376895e-15
	3.646535423647613e-15
	2.839086693950783e-15

 45	4.500000000000002e-01
	1.264421663306464e-03
	4.091928351751292e-01
	3.385386649932474e-03
	5.807985182289577e-04
	4.583162906463584e-04
	4.709617970769416e-15
	4.176639456802719e-15
	1.294739171654055e-16
	4.035045968012916e-16
	1.864250937184880e-16
	2.780903146654873e-15
	5.301266832021765e-15
	5.049058371553817e-15
	3.646535423647613e-15
	2.839086693950783e-15

 46	4.600000000000002e-01
	1.230668308347460e-03
	4.091386250148295e-01
	3.365060625595619e-03
	5.759947893954997e-04
	4.422227097138244e-04
	4.697481233082872e-15
	4.172216050557559e-15
	1.192073990880007e-16
	4.060577834373120e-16
	1.777825932675521e-16
	2.779654599013431e-15
	5.299568885948888e-15
	5.043374026030392e-15
	3.646535423647613e-15
	2.839086693950783e-15

 47	4.700000000000003e-01
	1.197124951491573e-03
	4.090844160254959e-01
	3.343384085832566e-03
	5.709563913127207e-04
	4.266252042392652e-04
	4.685233821911120e-15
	4.167469807462802e-15
	1.091277203757885e-16
	4.086362940725295e-16
	1.692858926538568e-16
	2.778266865772734e-15
	5.297841503003492e-15
	5.037616613885671e-15
	3.646535423647613e-15
	2.839086693950783e-15

 48	4.800000000000003e-01
	1.163805183705808e-03
	4.090302085276641e-01
	3.320340130096335e-03
	5.656827735010540e-04
	4.115172962800696e-04
	4.672877044674471e-15
	4.162397027920618e-15
	9.923993789955199e-17
	4.112400788543021e-16
	1.609395591380678e-16
	2.776736586485615e-15
	5.296084148396854e-15
	5.031786111166328e-15
	3.646535423647613e-15
	2.839086693950783e-15

 49	4.900000000000003e-01
	1.130722756908233e-03
	4.089760028540554e-01
	3.295913487967240e-03
	5.601737518815016e-04
	3.968917894595519e-04
	4.660411977890191e-15
	4.156993943725284e-15
	8.954892579857659e-17
	4.138691083663295e-16
	1.527480266855922e-16
	2.775060193727183e-15
	5.294296279264441e-15
	5.025882531679611e-15
	3.646535423647613e-15
	2.839086693950783e-15

 50	5.000000000000002e-01
	1.097891567088915e-03
	4.089217993501444e-01
	3.270090634742421e-03
	5.544295254641224e-04
	3.827407839648429e-04
	4.647839426606000e-15
	4.151256687644473e-15
	8.005936023421282e-17
	4.165233787273146e-16
	1.447155819048561e-16
	2.773233888207845e-15
	5.292477344666813e-15
	5.019905927741953e-15
	3.646535423647613e-15
	2.839086693950783e-15

 51	5.100000000000002e-01
	1.065325636274800e-03
	4.088675983747574e-01
	3.242859906970477e-03
	5.484506924551951e-04
	3.690556954031148e-04
	4.635159879940872e-15
	4.145181258439071e-15
	7.077570421263115e-17
	4.192029172891687e-16
	1.368463498416700e-16
	2.771253611242190e-15
	5.290626785598800e-15
	5.013856390880165e-15
	3.646535423647613e-15
	2.839086693950783e-15

 52	5.200000000000002e-01
	1.033039093341902e-03
	4.088134003007040e-01
