Title: ** sch_path: /home/designer/shared/amaru/analog/tb/tb_nmos_lv_vds.sch
Date: Wed Sep  3 23:33:59  2025
Command: ngspice-44.2, Build Sun May  4 23:56:50 UTC 2025
Plotname: DC transfer characteristic
Flags: real
No. Variables: 3
No. Points: 151
Variables:
	0	v(v-sweep)	voltage
	1	i(ids)	current
	2	ro	notype
Values:
 0	0.000000000000000e+00
	5.014928007436434e-04
	7.719238554934055e+03

 1	1.000000000000000e-02
	5.001970450686998e-04
	7.715770834754329e+03

 2	2.000000000000000e-02
	4.989007071695427e-04
	7.712233781741542e+03

 3	3.000000000000000e-02
	4.976037626856697e-04
	7.708553501391678e+03

 4	4.000000000000000e-02
	4.963061866805315e-04
	7.704726934030839e+03

 5	5.000000000000000e-02
	4.950079536230977e-04
	7.700750938141938e+03

 6	6.000000000000000e-02
	4.937090373686456e-04
	7.696622287487940e+03

 7	7.000000000000001e-02
	4.924094111387519e-04
	7.692337668082207e+03

 8	8.000000000000000e-02
	4.911090475004179e-04
	7.687893675080432e+03

 9	9.000000000000000e-02
	4.898079183443305e-04
	7.683286809534131e+03

 10	9.999999999999999e-02
	4.885059948621665e-04
	7.678513474897778e+03

 11	1.100000000000000e-01
	4.872032475229035e-04
	7.673569973456985e+03

 12	1.200000000000000e-01
	4.858996460480968e-04
	7.668452502595655e+03

 13	1.300000000000000e-01
	4.845951593860558e-04
	7.663157150857180e+03

 14	1.400000000000000e-01
	4.832897556848589e-04
	7.657679893804387e+03

 15	1.500000000000000e-01
	4.819834022641393e-04
	7.652016589719674e+03

 16	1.600000000000000e-01
	4.806760655855889e-04
	7.646162975047780e+03

 17	1.700000000000000e-01
	4.793677112220745e-04
	7.640114659673498e+03

 18	1.800000000000000e-01
	4.780583038253414e-04
	7.633867121927806e+03

 19	1.900000000000000e-01
	4.767478070921544e-04
	7.627415703328729e+03

 20	2.000000000000000e-01
	4.754361837288490e-04
	7.620755603129049e+03

 21	2.100000000000000e-01
	4.741233954141591e-04
	7.613881872482375e+03

 22	2.200000000000001e-01
	4.728094027602234e-04
	7.606789408408312e+03

 23	2.300000000000001e-01
	4.714941652716902e-04
	7.599472947395412e+03

 24	2.400000000000001e-01
	4.701776413027588e-04
	7.591927058658939e+03

 25	2.500000000000001e-01
	4.688597880120735e-04
	7.584146137080766e+03

 26	2.600000000000001e-01
	4.675405613153077e-04
	7.576124395770135e+03

 27	2.700000000000001e-01
	4.662199158353223e-04
	7.567855858186402e+03

 28	2.800000000000001e-01
	4.648978048497012e-04
	7.559334349852407e+03

 29	2.900000000000001e-01
	4.635741802355481e-04
	7.550553489677439e+03

 30	3.000000000000001e-01
	4.622489924113360e-04
	7.541506680715165e+03

 31	3.100000000000001e-01
	4.609221902756183e-04
	7.532187100425422e+03

 32	3.200000000000001e-01
	4.595937211424013e-04
	7.522587690463281e+03

 33	3.300000000000001e-01
	4.582635306729719e-04
	7.512701145811966e+03

 34	3.400000000000001e-01
	4.569315628038989e-04
	7.502519903326066e+03

 35	3.500000000000001e-01
	4.555977596710005e-04
	7.492036129636524e+03

 36	3.600000000000002e-01
	4.542620615289537e-04
	7.481241708324214e+03

 37	3.700000000000002e-01
	4.529244066662785e-04
	7.470128226403831e+03

 38	3.800000000000002e-01
	4.515847313153560e-04
	7.458686959938136e+03

 39	3.900000000000002e-01
	4.502429695571166e-04
	7.446908858872152e+03

 40	4.000000000000002e-01
	4.488990532200517e-04
	7.434784530945097e+03

 41	4.100000000000002e-01
	4.475529117730940e-04
	7.422304224618871e+03

 42	4.200000000000002e-01
	4.462044722119515e-04
	7.409457811042521e+03

 43	4.300000000000002e-01
	4.448536589384003e-04
	7.396234764850014e+03

 44	4.400000000000002e-01
	4.435003936319897e-04
	7.382624143816151e+03

 45	4.500000000000002e-01
	4.421445951136148e-04
	7.368614567349890e+03

 46	4.600000000000002e-01
	4.407861792003353e-04
	7.354194193519887e+03

 47	4.700000000000003e-01
	4.394250585507072e-04
	7.339350694784279e+03

 48	4.800000000000003e-01
	4.380611424999889e-04
	7.324071232172276e+03

 49	4.900000000000003e-01
	4.366943368843004e-04
	7.308342427837644e+03

 50	5.000000000000002e-01
	4.353245438529661e-04
	7.292150335965306e+03

 51	5.100000000000002e-01
	4.339516616679984e-04
	7.275480411785905e+03

 52	5.200000000000002e-01
	4.325755844897327e-04
	7.258317478713741e+03

 53	5.300000000000002e-01
	4.311962021474341e-04
	7.240645693380855e+03

 54	5.400000000000003e-01
	4.298133998936430e-04
	7.222448508497247e+03

 55	5.500000000000003e-01
	4.284270581408732e-04
	7.203708633373123e+03

 56	5.600000000000003e-01
	4.270370521791693e-04
	7.184407991990680e+03

 57	5.700000000000003e-01
	4.256432518728694e-04
	7.164527678447649e+03

 58	5.800000000000003e-01
	4.242455213347615e-04
	7.144047909595268e+03

 59	5.900000000000003e-01
	4.228437185756280e-04
	7.122947974819690e+03

 60	6.000000000000003e-01
	4.214376951270309e-04
	7.101206182670665e+03

 61	6.100000000000003e-01
	4.200272956348596e-04
	7.078799804212242e+03

 62	6.200000000000003e-01
	4.186123574210403e-04
	7.055705013077506e+03

 63	6.300000000000003e-01
	4.171927100104704e-04
	7.031896821823739e+03

 64	6.400000000000003e-01
	4.157681746199034e-04
	7.007349014572900e+03

 65	6.500000000000004e-01
	4.143385636052597e-04
	6.982034075826507e+03

 66	6.600000000000004e-01
	4.129036798633904e-04
	6.955923115225489e+03

 67	6.700000000000004e-01
	4.114633161839329e-04
	6.928985788131471e+03

 68	6.800000000000004e-01
	4.100172545463898e-04
	6.901190212060743e+03

 69	6.900000000000004e-01
	4.085652653571280e-04
	6.872502878800717e+03

 70	7.000000000000004e-01
	4.071071066202692e-04
	6.842888562159177e+03

 71	7.100000000000004e-01
	4.056425230359102e-04
	6.812310221548759e+03

 72	7.200000000000004e-01
	4.041712450183216e-04
	6.780728901367086e+03

 73	7.300000000000004e-01
	4.026929876259386e-04
	6.748103626382889e+03

 74	7.400000000000004e-01
	4.012074493940507e-04
	6.714391293541860e+03

 75	7.500000000000004e-01
	3.997143110600917e-04
	6.679546560442135e+03

 76	7.600000000000005e-01
	3.982132341701544e-04
	6.643521731162641e+03

 77	7.700000000000005e-01
	3.967038595542004e-04
	6.606266640341119e+03

 78	7.800000000000005e-01
	3.951858056558601e-04
	6.567728536205856e+03

 79	7.900000000000005e-01
	3.936586667010326e-04
	6.527851964060317e+03

 80	8.000000000000005e-01
	3.921220106877585e-04
	6.486578651815417e+03

 81	8.100000000000005e-01
	3.905753771776099e-04
	6.443847399443192e+03

 82	8.200000000000005e-01
	3.890182748665583e-04
	6.399593974875132e+03

 83	8.300000000000005e-01
	3.874501789105760e-04
	6.353751019237146e+03

 84	8.400000000000005e-01
	3.858705279782325e-04
	6.306247965082121e+03

 85	8.500000000000005e-01
	3.842787209991935e-04
	6.257010971778746e+03

 86	8.600000000000005e-01
	3.826741135736220e-04
	6.205962883266608e+03

 87	8.700000000000006e-01
	3.810560140033255e-04
	6.153023214137043e+03

 88	8.800000000000006e-01
	3.794236789004603e-04
	6.098108171112217e+03

 89	8.900000000000006e-01
	3.777763083243178e-04
	6.041130718182301e+03

 90	9.000000000000006e-01
	3.761130403903871e-04
	5.982000694910574e+03

 91	9.100000000000006e-01
	3.744329452891019e-04
	5.920624998921496e+03

 92	9.200000000000006e-01
	3.727350186437568e-04
	5.856907844931917e+03

 93	9.300000000000006e-01
	3.710181741283594e-04
	5.790751114526915e+03

 94	9.400000000000006e-01
	3.692812352563432e-04
	5.722054812344069e+03

 95	9.500000000000006e-01
	3.675229262399864e-04
	5.650717645973813e+03

 96	9.600000000000006e-01
	3.657418618080432e-04
	5.576637748495652e+03

 97	9.700000000000006e-01
	3.639365358553151e-04
	5.499713563781270e+03

 98	9.800000000000006e-01
	3.621053087824981e-04
	5.419844915687515e+03

 99	9.900000000000007e-01
	3.602463933676378e-04
	5.336934282701501e+03

 100	1.000000000000001e+00
	3.583578389916810e-04
	5.250888299122003e+03

 101	1.010000000000001e+00
	3.564375140198627e-04
	5.161619502621168e+03

 102	1.020000000000001e+00
	3.544830861181219e-04
	5.069048345180091e+03

 103	1.030000000000001e+00
	3.524920002590762e-04
	4.973105479861062e+03

 104	1.040000000000001e+00
	3.504614541457072e-04
	4.873734329486498e+03

 105	1.050000000000001e+00
	3.483883707528476e-04
	4.770893934164995e+03

 106	1.060000000000001e+00
	3.462693676570981e-04
	4.664562062769588e+03

 107	1.070000000000001e+00
	3.441007227955761e-04
	4.554738558692515e+03

 108	1.080000000000001e+00
	3.418783362636868e-04
	4.441448872068939e+03

 109	1.090000000000001e+00
	3.395976877329022e-04
	4.324747709600272e+03

 110	1.100000000000001e+00
	3.372537890431395e-04
	4.204722709395238e+03

 111	1.110000000000001e+00
	3.348411315026159e-04
	4.081498022711018e+03

 112	1.120000000000001e+00
	3.323536274140729e-04
	3.955237658570080e+03

 113	1.130000000000001e+00
	3.297845453435859e-04
	3.826148422621085e+03

 114	1.140000000000001e+00
	3.271264386616043e-04
	3.694482260839087e+03

 115	1.150000000000001e+00
	3.243710669214544e-04
	3.560537804539220e+03

 116	1.160000000000001e+00
	3.215093097058318e-04
	3.424660908851779e+03

 117	1.170000000000001e+00
	3.185310726760954e-04
	3.287243985415636e+03

 118	1.180000000000001e+00
	3.154251857135961e-04
	3.148723954395397e+03

 119	1.190000000000001e+00
	3.121792932601574e-04
	3.009578682898842e+03

 120	1.200000000000001e+00
	3.087797372614108e-04
	2.870321836907632e+03

 121	1.210000000000001e+00
	3.052114335090895e-04
	2.731496150597111e+03

 122	1.220000000000001e+00
	3.014577426850581e-04
	2.593665206809625e+03

 123	1.230000000000001e+00
	2.975003380494709e-04
	2.457403919584709e+03

 124	1.240000000000001e+00
	2.933190725052777e-04
	2.323288006219115e+03

 125	1.250000000000001e+00
	2.888918487246593e-04
	2.191882823207709e+03

 126	1.260000000000001e+00
	2.841944971455732e-04
	2.063732008138858e+03

 127	1.270000000000001e+00
	2.792006679312595e-04
	1.939346409742820e+03

 128	1.280000000000001e+00
	2.738817444060294e-04
	1.819193794663939e+03

 129	1.290000000000001e+00
	2.682067869831911e-04
	1.703689789286821e+03

 130	1.300000000000001e+00
	2.621425180951338e-04
	1.593190449285410e+03

 131	1.310000000000001e+00
	2.556533599845730e-04
	1.487986753763166e+03

 132	1.320000000000001e+00
	2.487015382279274e-04
	1.388301203682661e+03

 133	1.330000000000001e+00
	2.412472642850609e-04
	1.294286576902789e+03

 134	1.340000000000001e+00
	2.332490098954006e-04
	1.206026766642113e+03

 135	1.350000000000001e+00
	2.246638844188866e-04
	1.123539518113757e+03

 136	1.360000000000001e+00
	2.154481228971607e-04
	1.046780788976849e+03

 137	1.370000000000001e+00
	2.055576873902343e-04
	9.756503999957952e+02

 138	1.380000000000001e+00
	1.949489768914946e-04
	9.099986165859215e+02

 139	1.390000000000001e+00
	1.835796320003976e-04
	8.496333102986943e+02

 140	1.400000000000001e+00
	1.714094101659752e-04
	7.943273896187095e+02

 141	1.410000000000001e+00
	1.584010969764446e-04
	7.438262568689863e+02

 142	1.420000000000001e+00
	1.445214106966003e-04
	6.978551347364447e+02

 143	1.430000000000001e+00
	1.297418538119547e-04
	6.561261999832096e+02

 144	1.440000000000001e+00
	1.140394698740706e-04
	6.183455455106784e+02

 145	1.450000000000001e+00
	9.739747914118208e-05
	5.842200411867452e+02

 146	1.460000000000001e+00
	7.980579319400683e-05
	5.534641555460850e+02

 147	1.470000000000001e+00
	6.126144431474058e-05
	5.258067476379039e+02

 148	1.480000000000001e+00
	4.176900479247562e-05
	5.009980165882836e+02

 149	1.490000000000001e+00
	2.134112659333351e-05
	4.788239532966807e+02

 150	1.500000000000001e+00
	2.420410755402563e-18
	4.587629290813901e+02

Title: ** sch_path: /home/designer/shared/amaru/analog/tb/tb_nmos_lv_vds.sch
Date: Wed Sep  3 23:33:59  2025
Command: ngspice-44.2, Build Sun May  4 23:56:50 UTC 2025
Plotname: DC transfer characteristic
Flags: real
No. Variables: 3
No. Points: 151
Variables:
	0	v(v-sweep)	voltage
	1	i(ids)	current
	2	ro	notype
Values:
 0	0.000000000000000e+00
	3.583482844500988e-04
	5.905789643117212e+03

 1	1.000000000000000e-02
	3.566566863659116e-04
	5.917361106775771e+03

 2	2.000000000000000e-02
	3.549683994575979e-04
	5.928962693733942e+03

 3	3.000000000000000e-02
	3.532834150142235e-04
	5.940578774037680e+03

 4	4.000000000000000e-02
	3.516017241283511e-04
	5.952208544648335e+03

 5	5.000000000000000e-02
	3.499233176906877e-04
	5.963851170891156e+03

 6	6.000000000000000e-02
	3.482481863845493e-04
	5.975505785329567e+03

 7	7.000000000000001e-02
	3.465763206801414e-04
	5.987171486575615e+03

 8	8.000000000000000e-02
	3.449077108286305e-04
	5.998847338069131e+03

 9	9.000000000000000e-02
	3.432423468560238e-04
	6.010532366809542e+03

 10	9.999999999999999e-02
	3.415802185568242e-04
	6.022225562001323e+03

 11	1.100000000000000e-01
	3.399213154874556e-04
	6.033925873696576e+03

 12	1.200000000000000e-01
	3.382656269594722e-04
	6.045632211346832e+03

 13	1.300000000000000e-01
	3.366131420325003e-04
	6.057343442312339e+03

 14	1.400000000000000e-01
	3.349638495069516e-04
	6.069058390299351e+03

 15	1.500000000000000e-01
	3.333177379164405e-04
	6.080775833740918e+03

 16	1.600000000000000e-01
	3.316747955199547e-04
	6.092494504102278e+03

 17	1.700000000000000e-01
	3.300350102937018e-04
	6.104213084126567e+03

 18	1.800000000000000e-01
	3.283983699226884e-04
	6.115930206010270e+03

 19	1.900000000000000e-01
	3.267648617919505e-04
	6.127644449477158e+03

 20	2.000000000000000e-01
	3.251344729774754e-04
	6.139354339796849e+03

 21	2.100000000000000e-01
	3.235071902367586e-04
	6.151058345706822e+03

 22	2.200000000000001e-01
	3.218829999990149e-04
	6.162754877240059e+03

 23	2.300000000000001e-01
	3.202618883549877e-04
	6.174442283473464e+03

 24	2.400000000000001e-01
	3.186438410463865e-04
	6.186118850175283e+03

 25	2.500000000000001e-01
	3.170288434548832e-04
	6.197782797322207e+03

 26	2.600000000000001e-01
	3.154168805906827e-04
	6.209432276557860e+03

 27	2.700000000000001e-01
	3.138079370806394e-04
	6.221065368490884e+03

 28	2.800000000000001e-01
	3.122019971558778e-04
	6.232680079892219e+03

 29	2.900000000000001e-01
	3.105990446389234e-04
	6.244274340771273e+03

 30	3.000000000000001e-01
	3.089990629302926e-04
	6.255846001304467e+03

 31	3.100000000000001e-01
	3.074020349945317e-04
	6.267392828642370e+03

 32	3.200000000000001e-01
	3.058079433456706e-04
	6.278912503551569e+03

 33	3.300000000000001e-01
	3.042167700320581e-04
	6.290402616917263e+03

 34	3.400000000000001e-01
	3.026284966205575e-04
	6.301860666048700e+03

 35	3.500000000000001e-01
	3.010431041800423e-04
	6.313284050858359e+03

 36	3.600000000000002e-01
	2.994605732642053e-04
	6.324670069837513e+03

 37	3.700000000000002e-01
	2.978808838935834e-04
	6.336015915814237e+03

 38	3.800000000000002e-01
	2.963040155368042e-04
	6.347318671551137e+03

 39	3.900000000000002e-01
	2.947299470909866e-04
	6.358575305096002e+03

 40	4.000000000000002e-01
	2.931586568612576e-04
	6.369782664910685e+03

 41	4.100000000000002e-01
	2.915901225393305e-04
	6.380937474776345e+03

 42	4.200000000000002e-01
	2.900243211811073e-04
	6.392036328404042e+03

 43	4.300000000000002e-01
	2.884612291832138e-04
	6.403075683807608e+03

 44	4.400000000000002e-01
	2.869008222584603e-04
	6.414051857401815e+03

 45	4.500000000000002e-01
	2.853430754101164e-04
	6.424961017727344e+03

 46	4.600000000000002e-01
	2.837879629049456e-04
	6.435799178922617e+03

 47	4.700000000000003e-01
	2.822354582449475e-04
	6.446562193824283e+03

 48	4.800000000000003e-01
	2.806855341376935e-04
	6.457245746676185e+03

 49	4.900000000000003e-01
	2.791381624651957e-04
	6.467845345491694e+03

 50	5.000000000000002e-01
	2.775933142512146e-04
	6.478356313974101e+03

 51	5.100000000000002e-01
	2.760509596268987e-04
	6.488773782972399e+03

 52	5.200000000000002e-01
	2.745110677946524e-04
	6.499092681507203e+03

 53	5.300000000000002e-01
	2.729736069901362e-04
	6.509307727260418e+03

 54	5.400000000000003e-01
	2.714385444422471e-04
	6.519413416528439e+03

 55	5.500000000000003e-01
	2.699058463309802e-04
	6.529404013604971e+03

 56	5.600000000000003e-01
	2.683754777430006e-04
	6.539273539501503e+03

 57	5.700000000000003e-01
	2.668474026247815e-04
	6.549015760060731e+03

 58	5.800000000000003e-01
	2.653215837331602e-04
	6.558624173319662e+03

 59	5.900000000000003e-01
	2.637979825830966e-04
	6.568091996076689e+03

 60	6.000000000000003e-01
	2.622765593924617e-04
	6.577412149687118e+03

 61	6.100000000000003e-01
	2.607572730236460e-04
	6.586577244922019e+03

 62	6.200000000000003e-01
	2.592400809217326e-04
	6.595579565851683e+03

 63	6.300000000000003e-01
	2.577249390490020e-04
	6.604411052733481e+03

 64	6.400000000000003e-01
	2.562118018154946e-04
	6.613063283733393e+03

 65	6.500000000000004e-01
	2.547006220053113e-04
	6.621527455416914e+03

 66	6.600000000000004e-01
	2.531913506983376e-04
	6.629794361943841e+03

 67	6.700000000000004e-01
	2.516839371870305e-04
	6.637854372790127e+03

 68	6.800000000000004e-01
	2.501783288878586e-04
	6.645697408911445e+03

 69	6.900000000000004e-01
	2.486744712469801e-04
	6.653312917191395e+03

 70	7.000000000000004e-01
	2.471723076396587e-04
	6.660689842993851e+03

 71	7.100000000000004e-01
	2.456717792629002e-04
	6.667816600687474e+03

 72	7.200000000000004e-01
	2.441728250207250e-04
	6.674681041922503e+03

 73	7.300000000000004e-01
	2.426753814014318e-04
	6.681270421424286e+03

 74	7.400000000000004e-01
	2.411793823461301e-04
	6.687571360084048e+03

 75	7.500000000000004e-01
	2.396847591077583e-04
	6.693569805055752e+03

 76	7.600000000000005e-01
	2.381914400996933e-04
	6.699250986479764e+03

 77	7.700000000000005e-01
	2.366993507329469e-04
	6.704599370658740e+03

 78	7.800000000000005e-01
	2.352084132409184e-04
	6.709598609104949e+03

 79	7.900000000000005e-01
	2.337185464903712e-04
	6.714231482979174e+03

 80	8.000000000000005e-01
	2.322296657773106e-04
	6.718479842597868e+03

 81	8.100000000000005e-01
	2.307416826061943e-04
	6.722324541287525e+03

 82	8.200000000000005e-01
	2.292545044507244e-04
	6.725745362886271e+03

 83	8.300000000000005e-01
	2.277680344942151e-04
	6.728720942222379e+03

 84	8.400000000000005e-01
	2.262821713473405e-04
	6.731228677573842e+03

 85	8.500000000000005e-01
	2.247968087406415e-04
	6.733244634139894e+03

 86	8.600000000000005e-01
	2.233118351889611e-04
	6.734743437431591e+03

 87	8.700000000000006e-01
	2.218271336244611e-04
	6.735698155027949e+03

 88	8.800000000000006e-01
	2.203425809944169e-04
	6.736080165307160e+03

 89	8.900000000000006e-01
	2.188580478194842e-04
	6.735859011249853e+03

 90	9.000000000000006e-01
	2.173733977073859e-04
	6.735002237195705e+03

 91	9.100000000000006e-01
	2.158884868162903e-04
	6.733475206078564e+03

 92	9.200000000000006e-01
	2.144031632611456e-04
	6.731240894219603e+03

 93	9.300000000000006e-01
	2.129172664552459e-04
	6.728259660359067e+03

 94	9.400000000000006e-01
	2.114306263779699e-04
	6.724488984868996e+03

 95	9.500000000000006e-01
	2.099430627581319e-04
	6.719883174477247e+03

 96	9.600000000000006e-01
	2.084543841605514e-04
	6.714393027001826e+03

 97	9.700000000000006e-01
	2.069643869612921e-04
	6.707965449554146e+03

 98	9.800000000000006e-01
	2.054728541943633e-04
	6.700543022498117e+03

 99	9.900000000000007e-01
	2.039795542495482e-04
	6.692063499971524e+03

 100	1.000000000000001e+00
	2.024842393971359e-04
	6.682459236141820e+03

 101	1.010000000000001e+00
	2.009866441107432e-04
	6.671656524287068e+03

 102	1.020000000000001e+00
	1.994864831536613e-04
	6.659574833199352e+03

 103	1.030000000000001e+00
	1.979834493872158e-04
	6.646125922708245e+03

 104	1.040000000000001e+00
	1.964772112511135e-04
	6.631212816422812e+03

 105	1.050000000000001e+00
	1.949674098551308e-04
	6.614728605542658e+03

 106	1.060000000000001e+00
	1.934536556084464e-04
	6.596555052813429e+03

 107	1.070000000000001e+00
	1.919355242967028e-04
	6.576560959587689e+03

 108	1.080000000000001e+00
	1.904125524965163e-04
	6.554600252061349e+03

 109	1.090000000000001e+00
	1.888842321917861e-04
	6.530509734741980e+03

 110	1.100000000000001e+00
	1.873500044241046e-04
	6.504106449830162e+03

 111	1.110000000000001e+00
	1.858092517691452e-04
	6.475184570787504e+03

 112	1.120000000000001e+00
	1.842612893795592e-04
	6.443511746935915e+03

 113	1.130000000000001e+00
