Title: ** sch_path: /home/designer/shared/amaru/analog/tb/tb_nmos_lv_vds.sch
Date: Wed Sep  3 23:35:57  2025
Command: ngspice-44.2, Build Sun May  4 23:56:50 UTC 2025
Plotname: DC transfer characteristic
Flags: real
No. Variables: 3
No. Points: 151
Variables:
	0	v(v-sweep)	voltage
	1	i(ids)	current
	2	ro	notype
Values:
 0	0.000000000000000e+00
	1.215356231927232e-04
	2.417984771250544e+05

 1	1.000000000000000e-02
	1.214941250678164e-04
	2.401566029915984e+05

 2	2.000000000000000e-02
	1.214523441999707e-04
	2.385238931859552e+05

 3	3.000000000000000e-02
	1.214102760255554e-04
	2.368873038721546e+05

 4	4.000000000000000e-02
	1.213679158677086e-04
	2.352468107798925e+05

 5	5.000000000000000e-02
	1.213252589325130e-04
	2.336023892152934e+05

 6	6.000000000000000e-02
	1.212823003050117e-04
	2.319540140552149e+05

 7	7.000000000000001e-02
	1.212390349450495e-04
	2.303016597384489e+05

 8	8.000000000000000e-02
	1.211954576829363e-04
	2.286453002475964e+05

 9	9.000000000000000e-02
	1.211515632149141e-04
	2.269849090873152e+05

 10	9.999999999999999e-02
	1.211073460984243e-04
	2.253204592843241e+05

 11	1.100000000000000e-01
	1.210628007471669e-04
	2.236519233679782e+05

 12	1.200000000000000e-01
	1.210179214259296e-04
	2.219792733453764e+05

 13	1.300000000000000e-01
	1.209727022451825e-04
	2.203024807001831e+05

 14	1.400000000000000e-01
	1.209271371554282e-04
	2.186215163686811e+05

 15	1.500000000000000e-01
	1.208812199412803e-04
	2.169363507182038e+05

 16	1.600000000000000e-01
	1.208349442152696e-04
	2.152469535343820e+05

 17	1.700000000000000e-01
	1.207883034113523e-04
	2.135532940071626e+05

 18	1.800000000000000e-01
	1.207412907781124e-04
	2.118553406989306e+05

 19	1.900000000000000e-01
	1.206938993716239e-04
	2.101530615319728e+05

 20	2.000000000000000e-01
	1.206461220479773e-04
	2.084464237739882e+05

 21	2.100000000000000e-01
	1.205979514554261e-04
	2.067353940006845e+05

 22	2.200000000000001e-01
	1.205493800261447e-04
	2.050199380793513e+05

 23	2.300000000000001e-01
	1.205003999675691e-04
	2.033000211536389e+05

 24	2.400000000000001e-01
	1.204510032533017e-04
	2.015756076070384e+05

 25	2.500000000000001e-01
	1.204011816135360e-04
	1.998466610364518e+05

 26	2.600000000000001e-01
	1.203509265249927e-04
	1.981131442345687e+05

 27	2.700000000000001e-01
	1.203002292003214e-04
	1.963750191586475e+05

 28	2.800000000000001e-01
	1.202490805769404e-04
	1.946322468919566e+05

 29	2.900000000000001e-01
	1.201974713052687e-04
	1.928847876192240e+05

 30	3.000000000000001e-01
	1.201453917363281e-04
	1.911326005982329e+05

 31	3.100000000000001e-01
	1.200928319086540e-04
	1.893756441182133e+05

 32	3.200000000000001e-01
	1.200397815344823e-04
	1.876138754667490e+05

 33	3.300000000000001e-01
	1.199862299851542e-04
	1.858472508910407e+05

 34	3.400000000000001e-01
	1.199321662756926e-04
	1.840757255641664e+05

 35	3.500000000000001e-01
	1.198775790484883e-04
	1.822992535363300e+05

 36	3.600000000000002e-01
	1.198224565560309e-04
	1.805177876964343e+05

 37	3.700000000000002e-01
	1.197667866426251e-04
	1.787312797243263e+05

 38	3.800000000000002e-01
	1.197105567250061e-04
	1.769396800418317e+05

 39	3.900000000000002e-01
	1.196537537717887e-04
	1.751429377667247e+05

 40	4.000000000000002e-01
	1.195963642816508e-04
	1.733410006551961e+05

 41	4.100000000000002e-01
	1.195383742601647e-04
	1.715338150448714e+05

 42	4.200000000000002e-01
	1.194797691951673e-04
	1.697213258014661e+05

 43	4.300000000000002e-01
	1.194205340305675e-04
	1.679034762503865e+05

 44	4.400000000000002e-01
	1.193606531384505e-04
	1.660802081130673e+05

 45	4.500000000000002e-01
	1.193001102893690e-04
	1.642514614360889e+05

 46	4.600000000000002e-01
	1.192388886206487e-04
	1.624171745177028e+05

 47	4.700000000000003e-01
	1.191769706025754e-04
	1.605772838304119e+05

 48	4.800000000000003e-01
	1.191143380022616e-04
	1.587317239334011e+05

 49	4.900000000000003e-01
	1.190509718450215e-04
	1.568804273871213e+05

 50	5.000000000000002e-01
	1.189868523730273e-04
	1.550233246580624e+05

 51	5.100000000000002e-01
	1.189219590010246e-04
	1.531603440211057e+05

 52	5.200000000000002e-01
	1.188562702688421e-04
	1.512914114471958e+05

 53	5.300000000000002e-01
	1.187897637904129e-04
	1.494164504933084e+05

 54	5.400000000000003e-01
	1.187224161989993e-04
	1.475353821800728e+05

 55	5.500000000000003e-01
	1.186542030882649e-04
	1.456481248638827e+05

 56	5.600000000000003e-01
	1.185850989488205e-04
	1.437545940966104e+05

 57	5.700000000000003e-01
	1.185150770998004e-04
	1.418547024749758e+05

 58	5.800000000000003e-01
	1.184441096150088e-04
	1.399483594892368e+05

 59	5.900000000000003e-01
	1.183721672431005e-04
	1.380354713517349e+05

 60	6.000000000000003e-01
	1.182992193212014e-04
	1.361159408136312e+05

 61	6.100000000000003e-01
	1.182252336813116e-04
	1.341896669757837e+05

 62	6.200000000000003e-01
	1.181501765487530e-04
	1.322565450838189e+05

 63	6.300000000000003e-01
	1.180740124318276e-04
	1.303164663076029e+05

 64	6.400000000000003e-01
	1.179967040017550e-04
	1.283693175092138e+05

 65	6.500000000000004e-01
	1.179182119618394e-04
	1.264149809979887e+05

 66	6.600000000000004e-01
	1.178384949046836e-04
	1.244533342657119e+05

 67	6.700000000000004e-01
	1.177575091561010e-04
	1.224842497135336e+05

 68	6.800000000000004e-01
	1.176752086042264e-04
	1.205075943633335e+05

 69	6.900000000000004e-01
	1.175915445120828e-04
	1.185232295544234e+05

 70	7.000000000000004e-01
	1.175064653116652e-04
	1.165310106339318e+05

 71	7.100000000000004e-01
	1.174199163772954e-04
	1.145307866370095e+05

 72	7.200000000000004e-01
	1.173318397757087e-04
	1.125223999664649e+05

 73	7.300000000000004e-01
	1.172421739899488e-04
	1.105056860750497e+05

 74	7.400000000000004e-01
	1.171508536137259e-04
	1.084804731601187e+05

 75	7.500000000000004e-01
	1.170578090123876e-04
	1.064465818823870e+05

 76	7.600000000000005e-01
	1.169629659460684e-04
	1.044038251245912e+05

 77	7.700000000000005e-01
	1.168662451498937e-04
	1.023520078068289e+05

 78	7.800000000000005e-01
	1.167675618653028e-04
	1.002909267897370e+05

 79	7.900000000000005e-01
	1.166668253156157e-04
	9.822037089608982e+04

 80	8.000000000000005e-01
	1.165639381178303e-04
	9.614012109287306e+04

 81	8.100000000000005e-01
	1.164587956213252e-04
	9.404995089296391e+04

 82	8.200000000000005e-01
	1.163512851625645e-04
	9.194962704344302e+04

 83	8.300000000000005e-01
	1.162412852230443e-04
	8.983891058879689e+04

 84	8.400000000000005e-01
	1.161286644755045e-04
	8.771755841895056e+04

 85	8.500000000000005e-01
	1.160132807007971e-04
	8.558532544122980e+04

 86	8.600000000000005e-01
	1.158949795546738e-04
	8.344196754611097e+04

 87	8.700000000000006e-01
	1.157735931600048e-04
	8.128724557302338e+04

 88	8.800000000000006e-01
	1.156489384954767e-04
	7.912093053680347e+04

 89	8.900000000000006e-01
	1.155208155464921e-04
	7.694281042333206e+04

 90	9.000000000000006e-01
	1.153890051776012e-04
	7.475269892578124e+04

 91	9.100000000000006e-01
	1.152532666781916e-04
	7.255044656599143e+04

 92	9.200000000000006e-01
	1.151133349240514e-04
	7.033595471710061e+04

 93	9.300000000000006e-01
	1.149689170865718e-04
	6.810919312886021e+04

 94	9.400000000000006e-01
	1.148196888084359e-04
	6.587022162633583e+04

 95	9.500000000000006e-01
	1.146652897492682e-04
	6.361921672635082e+04

 96	9.600000000000006e-01
	1.145053183865863e-04
	6.135650395618230e+04

 97	9.700000000000006e-01
	1.143393259359733e-04
	5.908259665857962e+04

 98	9.800000000000006e-01
	1.141668092293877e-04
	5.679824200959849e+04

 99	9.900000000000007e-01
	1.139872023615039e-04
	5.450447480621530e+04

 100	1.000000000000001e+00
	1.137998668806887e-04
	5.220267928018474e+04

 101	1.010000000000001e+00
	1.136040802636388e-04
	4.989465870623147e+04

 102	1.020000000000001e+00
	1.133990223711039e-04
	4.758271184572963e+04

 103	1.030000000000001e+00
	1.131837595373876e-04
	4.526971425867390e+04

 104	1.040000000000001e+00
	1.129572259001627e-04
	4.295920120065199e+04

 105	1.050000000000001e+00
	1.127182015325591e-04
	4.065544720537015e+04

 106	1.060000000000001e+00
	1.124652869012145e-04
	3.836353560582975e+04

 107	1.070000000000001e+00
	1.121968731491303e-04
	3.608940933235073e+04

 108	1.080000000000001e+00
	1.119111077010004e-04
	3.383989261607228e+04

 109	1.090000000000001e+00
	1.116058547251977e-04
	3.162267211436302e+04

 110	1.100000000000001e+00
	1.112786500792134e-04
	2.944622596874666e+04

 111	1.110000000000001e+00
	1.109266505371559e-04
	2.731969093549150e+04

 112	1.120000000000001e+00
	1.105465773757841e-04
	2.525266144454477e+04

 113	1.130000000000001e+00
	1.101346548085504e-04
	2.325492043206896e+04

 114	1.140000000000001e+00
	1.096865443320924e-04
	2.133610978440885e+04

 115	1.150000000000001e+00
	1.091972768046832e-04
	1.950535737667693e+04

 116	1.160000000000001e+00
	1.086611850108674e-04
	1.777088653456394e+04

 117	1.170000000000001e+00
	1.080718405490917e-04
	1.613964045090741e+04

 118	1.180000000000001e+00
	1.074220000326869e-04
	1.461695683190316e+04

 119	1.190000000000001e+00
	1.067035666853866e-04
	1.320632557548736e+04

 120	1.200000000000001e+00
	1.059075742459167e-04
	1.190925439647323e+04

 121	1.210000000000001e+00
	1.050242004266624e-04
	1.072525509191040e+04

 122	1.220000000000001e+00
	1.040428167339872e-04
	9.651948776213108e+03

 123	1.230000000000001e+00
	1.029520800224089e-04
	8.685274651861995e+03

 124	1.240000000000001e+00
	1.017400685997400e-04
	7.819776258949782e+03

 125	1.250000000000001e+00
	1.003944620883779e-04
	7.048933331676495e+03

 126	1.260000000000001e+00
	9.890275988096908e-05
	6.365506820101179e+03

 127	1.270000000000001e+00
	9.725252845053417e-05
	5.761868578425772e+03

 128	1.280000000000001e+00
	9.543166370309276e-05
	5.230294159905380e+03

 129	1.290000000000001e+00
	9.342865174522051e-05
	4.763205319080040e+03

 130	1.300000000000001e+00
	9.123281048131670e-05
	4.353356642269195e+03

 131	1.310000000000001e+00
	8.883449563914627e-05
	3.993967141033436e+03

 132	1.320000000000001e+00
	8.622525801687013e-05
	3.678802154723697e+03

 133	1.330000000000001e+00
	8.339794342490996e-05
	3.402213502887892e+03

 134	1.340000000000001e+00
	8.034673217390853e-05
	3.159146805727342e+03

 135	1.350000000000001e+00
	7.706712019006020e-05
	2.945124689669448e+03

 136	1.360000000000001e+00
	7.355584821909552e-05
	2.756213658790715e+03

 137	1.370000000000001e+00
	6.981078868752541e-05
	2.588981111277925e+03

 138	1.380000000000001e+00
	6.583080151524828e-05
	2.440447580835595e+03

 139	1.390000000000001e+00
	6.161557066397242e-05
	2.308037955565117e+03

 140	1.400000000000001e+00
	5.716543275396936e-05
	2.189534263468356e+03

 141	1.410000000000001e+00
	5.248120801265739e-05
	2.083031652158173e+03

 142	1.420000000000001e+00
	4.756404240578194e-05
	1.986898433670600e+03

 143	1.430000000000001e+00
	4.241526822375148e-05
	1.899740496742928e+03

 144	1.440000000000001e+00
	3.703628872874590e-05
	1.820369984159754e+03

 145	1.450000000000001e+00
	3.142849071476498e-05
	1.747777872311736e+03

 146	1.460000000000001e+00
	2.559318699548793e-05
	1.681109975675516e+03

 147	1.470000000000001e+00
	1.953158909060817e-05
	1.619645988688379e+03

 148	1.480000000000001e+00
	1.324480954777384e-05
	1.562781835748253e+03

 149	1.490000000000001e+00
	6.733897472684168e-06
	1.510025487936348e+03

 150	1.500000000000001e+00
	7.600483919504426e-19
	1.460837110741195e+03

Title: ** sch_path: /home/designer/shared/amaru/analog/tb/tb_nmos_lv_vds.sch
Date: Wed Sep  3 23:35:57  2025
Command: ngspice-44.2, Build Sun May  4 23:56:50 UTC 2025
Plotname: DC transfer characteristic
Flags: real
No. Variables: 3
No. Points: 151
Variables:
	0	v(v-sweep)	voltage
	1	i(ids)	current
	2	ro	notype
Values:
 0	0.000000000000000e+00
	1.178875573769205e-04
	1.831661491240686e+05

 1	1.000000000000000e-02
	1.178328077067864e-04
	1.821357617941673e+05

 2	2.000000000000000e-02
	1.177777491777894e-04
	1.811097397819456e+05

 3	3.000000000000000e-02
	1.177223774227825e-04
	1.800808965766901e+05

 4	4.000000000000000e-02
	1.176666879804042e-04
	1.790492174847990e+05

 5	5.000000000000000e-02
	1.176106762923282e-04
	1.780146876493851e+05

 6	6.000000000000000e-02
	1.175543377004127e-04
	1.769772920513205e+05

 7	7.000000000000001e-02
	1.174976674437456e-04
	1.759370155029036e+05

 8	8.000000000000000e-02
	1.174406606555747e-04
	1.748938426454548e+05

 9	9.000000000000000e-02
	1.173833123601275e-04
	1.738477579465455e+05

 10	9.999999999999999e-02
	1.173256174693050e-04
	1.727987456952496e+05

 11	1.100000000000000e-01
	1.172675707792524e-04
	1.717467899967259e+05

 12	1.200000000000000e-01
	1.172091669667927e-04
	1.706918747718387e+05

 13	1.300000000000000e-01
	1.171504005857284e-04
	1.696339837493097e+05

 14	1.400000000000000e-01
	1.170912660629882e-04
	1.685731004599562e+05

 15	1.500000000000000e-01
	1.170317576946299e-04
	1.675092082412968e+05

 16	1.600000000000000e-01
	1.169718696416811e-04
	1.664422902222390e+05

 17	1.700000000000000e-01
	1.169115959258073e-04
	1.653723293232779e+05

 18	1.800000000000000e-01
	1.168509304248131e-04
	1.642993082511177e+05

 19	1.900000000000000e-01
	1.167898668679500e-04
	1.632232094918548e+05

 20	2.000000000000000e-01
	1.167283988310387e-04
	1.621440153089961e+05

 21	2.100000000000000e-01
	1.166665197313821e-04
	1.610617077348969e+05

 22	2.200000000000001e-01
	1.166042228224686e-04
	1.599762685654606e+05

 23	2.300000000000001e-01
	1.165415011884485e-04
	1.588876793545255e+05

 24	2.400000000000001e-01
	1.164783477383762e-04
	1.577959214073309e+05

 25	2.500000000000001e-01
	1.164147552002023e-04
	1.567009757735050e+05

 26	2.600000000000001e-01
	1.163507161145061e-04
	1.556028232433223e+05

 27	2.700000000000001e-01
	1.162862228279539e-04
	1.545014443368193e+05

 28	2.800000000000001e-01
	1.162212674864635e-04
	1.533968192971294e+05

 29	2.900000000000001e-01
	1.161558420280675e-04
	1.522889280860501e+05

 30	3.000000000000001e-01
	1.160899381754535e-04
	1.511777503718067e+05

 31	3.100000000000001e-01
	1.160235474281623e-04
	1.500632655225644e+05

 32	3.200000000000001e-01
	1.159566610544315e-04
	1.489454526003851e+05

 33	3.300000000000001e-01
	1.158892700826588e-04
	1.478242903478096e+05

 34	3.400000000000001e-01
	1.158213652924634e-04
	1.466997571809341e+05

 35	3.500000000000001e-01
	1.157529372053294e-04
	1.455718311790195e+05

 36	3.600000000000002e-01
	1.156839760747967e-04
	1.444404900754951e+05

 37	3.700000000000002e-01
	1.156144718761856e-04
	1.433057112450871e+05

 38	3.800000000000002e-01
	1.155444142958122e-04
	1.421674716933321e+05

 39	3.900000000000002e-01
	1.154737927196824e-04
	1.410257480467059e+05

 40	4.000000000000002e-01
	1.154025962216165e-04
	1.398805165384188e+05

 41	4.100000000000002e-01
	1.153308135507822e-04
	1.387317529942832e+05

 42	4.200000000000002e-01
	1.152584331185897e-04
	1.375794328227296e+05

 43	4.300000000000002e-01
	1.151854429849232e-04
	1.364235309994889e+05

 44	4.400000000000002e-01
	1.151118308436488e-04
	1.352640220487184e+05

 45	4.500000000000002e-01
	1.150375840073689e-04
	1.341008800342291e+05

 46	4.600000000000002e-01
	1.149626893913712e-04
	1.329340785371698e+05

 47	4.700000000000003e-01
	1.148871334967092e-04
	1.317635906412116e+05

 48	4.800000000000003e-01
	1.148109023923780e-04
	1.305893889161830e+05

 49	4.900000000000003e-01
	1.147339816965056e-04
	1.294114453939893e+05

 50	5.000000000000002e-01
	1.146563565565046e-04
	1.282297315536060e+05

 51	5.100000000000002e-01
	1.145780116281160e-04
	1.270442182954220e+05

 52	5.200000000000002e-01
	1.144989310532559e-04
	1.258548759205242e+05

 53	5.300000000000002e-01
	1.144190984366030e-04
	1.246616741068633e+05

 54	5.400000000000003e-01
	1.143384968208160e-04
	1.234645818842044e+05

 55	5.500000000000003e-01
	1.142571086603062e-04
	1.222635676069799e+05

 56	5.600000000000003e-01
	1.141749157934384e-04
	1.210585989240053e+05

 57	5.700000000000003e-01
	1.140918994130676e-04
	1.198496427502936e+05

 58	5.800000000000003e-01
	1.140080400352714e-04
	1.186366652345057e+05

 59	5.900000000000003e-01
	1.139233174661588e-04
	1.174196317258650e+05

 60	6.000000000000003e-01
	1.138377107665960e-04
	1.161985067341822e+05

 61	6.100000000000003e-01
	1.137511982146975e-04
	1.149732538930773e+05

 62	6.200000000000003e-01
	1.136637572659097e-04
	1.137438359207606e+05

 63	6.300000000000003e-01
	1.135753645104963e-04
	1.125102145705218e+05

 64	6.400000000000003e-01
	1.134859956282100e-04
	1.112723505867378e+05

 65	6.500000000000004e-01
	1.133956253399428e-04
	1.100302036528360e+05

 66	6.600000000000004e-01
	1.133042273560808e-04
	1.087837323358909e+05

 67	6.700000000000004e-01
	1.132117743213158e-04
	1.075328940282779e+05

 68	6.800000000000004e-01
	1.131182377555894e-04
	1.062776448827039e+05

 69	6.900000000000004e-01
	1.130235879908597e-04
	1.050179397454689e+05

 70	7.000000000000004e-01
	1.129277941033099e-04
	1.037537320796933e+05

 71	7.100000000000004e-01
	1.128308238406059e-04
	1.024849738857712e+05

 72	7.200000000000004e-01
	1.127326435437528e-04
	1.012116156141471e+05

 73	7.300000000000004e-01
	1.126332180630611e-04
	9.993360606873242e+04

 74	7.400000000000004e-01
	1.125325106676686e-04
	9.865089230460234e+04

 75	7.500000000000004e-01
	1.124304829480228e-04
	9.736341951322452e+04

 76	7.600000000000005e-01
	1.123270947106286e-04
	9.607113089751924e+04

 77	7.700000000000005e-01
	1.122223038643256e-04
	9.477396753757617e+04

 78	7.800000000000005e-01
	1.121160662972400e-04
	9.347186823882215e+04

 79	7.900000000000005e-01
	1.120083357434692e-04
	9.216476936408207e+04

 80	8.000000000000005e-01
	1.118990636384367e-04
	9.085260465048146e+04

 81	8.100000000000005e-01
	1.117881989617342e-04
	8.953530500687250e+04

 82	8.200000000000005e-01
	1.116756880661028e-04
	8.821279828422924e+04

 83	8.300000000000005e-01
	1.115614744910337e-04
	8.688500902092279e+04

 84	8.400000000000005e-01
	1.114454987592779e-04
	8.555185815894908e+04

 85	8.500000000000005e-01
	1.113276981543136e-04
	8.421326272252461e+04

 86	8.600000000000005e-01
	1.112080064765492e-04
	8.286913545567707e+04

 87	8.700000000000006e-01
	1.110863537757337e-04
	8.151938441230597e+04

 88	8.800000000000006e-01
	1.109626660566701e-04
	8.016391248998191e+04

 89	8.900000000000006e-01
	1.108368649549068e-04
	7.880261689805542e+04

 90	9.000000000000006e-01
	1.107088673785644e-04
	7.743538854869614e+04

 91	9.100000000000006e-01
	1.105785851118680e-04
	7.606211135664198e+04

 92	9.200000000000006e-01
	1.104459243752309e-04
	7.468266143010430e+04

 93	9.300000000000006e-01
	1.103107853358957e-04
	7.329690613619806e+04

 94	9.400000000000006e-01
	1.101730615621289e-04
	7.190470301215207e+04

 95	9.500000000000006e-01
	1.100326394127199e-04
	7.050589849433898e+04

 96	9.600000000000006e-01
	1.098893973520826e-04
	6.910032643229101e+04

 97	9.700000000000006e-01
	1.097432051794446e-04
	6.768780633800663e+04

 98	9.800000000000006e-01
	1.095939231583980e-04
	6.626814132310019e+04

 99	9.900000000000007e-01
	1.094414010304119e-04
	6.484111565785644e+04

 100	1.000000000000001e+00
	1.092854768925205e-04
	6.340649187081021e+04

 101	1.010000000000001e+00
	1.091259759152557e-04
	6.196400729838172e+04

 102	1.020000000000001e+00
	1.089627088716646e-04
	6.051336996609373e+04

 103	1.030000000000001e+00
	1.087954704416520e-04
	5.905425366217568e+04

 104	1.040000000000001e+00
	1.086240372475270e-04
	5.758629203938119e+04

 105	1.050000000000001e+00
	1.084481655659304e-04
	5.610907154328677e+04

 106	1.060000000000001e+00
	1.082675886475075e-04
	5.462212293428813e+04

 107	1.070000000000001e+00
	1.080820135578135e-04
	5.312491113598557e+04

 108	1.080000000000001e+00
	1.078911174295358e-04
	5.161682310503255e+04

 109	1.090000000000001e+00
	1.076945429852968e-04
	5.009715339962935e+04

 110	1.100000000000001e+00
	1.074918931494563e-04
	4.856508711992147e+04

 111	1.110000000000001e+00
	1.072827245126847e-04
	4.701967994380345e+04

 112	1.120000000000001e+00
	1.070665393396494e-04
	4.545983510814296e+04

 113	1.130000000000001e+00
