Title: ** sch_path: /home/designer/shared/amaru/analog/tb/tb_nmos_lv_vgs.sch
Date: Wed Sep  3 19:43:58  2025
Command: ngspice-44.2, Build Sun May  4 23:56:50 UTC 2025
Plotname: DC transfer characteristic
Flags: real
No. Variables: 16
No. Points: 151     
Variables:
	0	v(v-sweep)	voltage
	1	i(@n.xm1.nsg13_lv_nmos[ids])	current
	2	v(@n.xm1.nsg13_lv_nmos[vth])	voltage
	3	@n.xm1.nsg13_lv_nmos[gm]	admittance
	4	@n.xm1.nsg13_lv_nmos[gmb]	admittance
	5	@n.xm1.nsg13_lv_nmos[gds]	admittance
	6	@n.xm1.nsg13_lv_nmos[cgg]	capacitance
	7	@n.xm1.nsg13_lv_nmos[cgs]	capacitance
	8	@n.xm1.nsg13_lv_nmos[cgd]	capacitance
	9	@n.xm1.nsg13_lv_nmos[cgb]	capacitance
	10	@n.xm1.nsg13_lv_nmos[cdd]	capacitance
	11	@n.xm1.nsg13_lv_nmos[css]	capacitance
	12	@n.xm1.nsg13_lv_nmos[cgsol]	capacitance
	13	@n.xm1.nsg13_lv_nmos[cgdol]	capacitance
	14	@n.xm1.nsg13_lv_nmos[cjs]	capacitance
	15	@n.xm1.nsg13_lv_nmos[cjd]	capacitance
Values:
0		0.000000000000000e+00
	1.828598732794366e-06
	1.761695508411010e-01
	5.825883189703652e-05
	6.339850375286795e-06
	1.051531856020242e-06
	2.535776319200358e-13
	3.567509281447286e-15
	8.913693706581387e-19
	2.500092312692178e-13
	9.696536683834049e-19
	2.466742642326416e-15
	3.022899137094698e-13
	2.772583041676246e-13
	1.980879543692981e-13
	1.567718945075202e-13
1		1.000000000000000e-02
	2.514702030288344e-06
	1.761695508411010e-01
	8.011678191322419e-05
	8.654921291832744e-06
	1.453294408614992e-06
	2.533636276856384e-13
	4.822561734810010e-15
	1.389529005476565e-18
	2.485396764218229e-13
	1.328900349368752e-18
	3.377235399726123e-15
	3.025803166572805e-13
	2.775998059156460e-13
	1.980879543692981e-13
	1.567718945075202e-13
2		2.000000000000000e-02
	3.458066543231782e-06
	1.761695508411010e-01
	1.101382841600562e-04
	1.181257929229895e-05
	2.008199248311907e-06
	2.535871809455282e-13
	6.539972169831853e-15
	2.071490704558732e-18
	2.470451372849918e-13
	1.821187095415972e-18
	4.621930511305833e-15
	3.028686550391983e-13
	2.779418806939741e-13
	1.980879543692981e-13
	1.567718945075202e-13
3		3.000000000000000e-02
	4.754582002398136e-06
	1.761695508411010e-01
	1.513268716331344e-04
	1.611512847332060e-05
	2.774060635681736e-06
	2.543983513631397e-13
	8.886996486356589e-15
	3.004957834523812e-18
	2.455083499189486e-13
	2.495492382543049e-18
	6.321271737672605e-15
	3.031549023196409e-13
	2.782845052837375e-13
	1.980879543692981e-13
	1.567718945075202e-13
4		4.000000000000000e-02
	6.535229167450267e-06
	1.761695508411010e-01
	2.077470630294444e-04
	2.196893059810402e-05
	3.829962267484877e-06
	2.559993423557712e-13
	1.208858956679633e-14
	4.282050837141453e-18
	2.439064707381377e-13
	3.418491910399303e-18
	8.636986353372622e-15
	3.034390328517919e-13
	2.786276558798071e-13
	1.980879543692981e-13
	1.567718945075202e-13
5		5.000000000000000e-02
	8.978305354580923e-06
	1.761695508411010e-01
	2.848596271504284e-04
	2.991626632166123e-05
	5.283570202267868e-06
	2.586602932397575e-13
	1.644482202244266e-14
	6.027633257565679e-18
	2.422094435840573e-13
	4.680637790232331e-18
	1.178435759271730e-14
	3.037210218941376e-13
	2.789713080892414e-13
	1.980879543692981e-13
	1.567718945075202e-13
6		6.000000000000000e-02
	1.232536501218284e-05
	1.761695508411010e-01
	3.899286577740888e-04
	4.067356325285164e-05
	7.280507753557201e-06
	2.627379314722277e-13
	2.235141410313415e-14
	8.410057209416656e-18
	2.403781073118841e-13
	6.404048980313652e-18
	1.604653101461181e-14
	3.040008456258154e-13
	2.793154369302457e-13
	1.980879543692981e-13
	1.567718945075202e-13
7		7.000000000000001e-02
	1.690154075352305e-05
	1.761695508411010e-01
	5.324861792240711e-04
	5.517434112365884e-05
	1.001597965363648e-05
	2.686958910626014e-13
	3.032204168255827e-14
	1.165467426929394e-17
	2.383621947057738e-13
	8.752516619085538e-18
	2.178974715420364e-14
	3.042784811607497e-13
	2.796600168316711e-13
	1.980879543692981e-13
	1.567718945075202e-13
8		8.000000000000000e-02
	2.314062829782468e-05
	1.761695508411010e-01
	7.248093011193392e-04
	7.461224198332599e-05
	1.374847712197325e-05
	2.771236998967319e-13
	4.100906810706777e-14
	1.606018898844359e-17
	2.360985716006756e-13
	1.194377102243993e-17
	2.947688726042694e-14
	3.045539065605533e-13
	2.800050216330696e-13
	1.980879543692981e-13
	1.567718945075202e-13
9		9.000000000000000e-02
	3.161463677857195e-05
	1.761695508411010e-01
	9.823151214470511e-04
	1.004748060201755e-04
	1.881468512422106e-05
	2.887485812900287e-13
	5.521619328327921e-14
	2.201734713508348e-17
	2.335103706596144e-13
	1.626378832012665e-17
	3.967438340302888e-14
	3.048271008461798e-13
	2.803504245853318e-13
	1.980879543692981e-13
	1.567718945075202e-13
10		9.999999999999999e-02
	4.306623083045043e-05
	1.761695508411010e-01
	1.323710981262624e-03
	1.345524848538214e-04
	2.564351389915150e-05
	3.044304001520345e-13
	7.389230286369773e-14
	3.002840310933944e-17
	2.305080688852274e-13
	2.208222361401940e-17
	5.304451938615037e-14
	3.050980440083090e-13
	2.806961983519256e-13
	1.980879543692981e-13
	1.567718945075202e-13
11		1.100000000000000e-01
	5.844051443803250e-05
	1.761695508411010e-01
	1.770670013270629e-03
	1.789016251419060e-04
	3.476547350279514e-05
	3.251263336296008e-13
	9.809168898646689e-14
	4.072421978677242e-17
	2.269939204233472e-13
	2.986696198509266e-17
	7.031237647245587e-14
	3.053667170164586e-13
	2.810423150107581e-13
	1.980879543692981e-13
	1.567718945075202e-13
12		1.200000000000000e-01
	7.891013272935333e-05
	1.761695508411010e-01
	2.346780656080691e-03
	2.357393468044483e-04
	4.681173290817581e-05
	3.518108392043306e-13
	1.288847761915611e-13
	5.487388021816394e-17
	2.228711891325513e-13
	4.019433637684268e-17
	9.219647368624936e-14
	3.056331018268103e-13
	2.813887460566818e-13
	1.980879543692981e-13
	1.567718945075202e-13
13		1.300000000000000e-01
	1.058855200431418e-04
	1.761695508411010e-01
	3.075618867761102e-03
	3.072592731127147e-04
	6.249610516208823e-05
	3.853426785591865e-13
	1.672104414670293e-13
	7.337998713145025e-17
	2.180588571050258e-13
	5.375014449433015e-17
	1.192981758866054e-13
	3.058971813887510e-13
	2.817354624046641e-13
	1.980879543692981e-13
	1.567718945075202e-13
14		1.400000000000000e-01
	1.410018709649065e-04
	1.761695508411010e-01
	3.978076110238950e-03
	3.953849481030083e-04
	8.257448109640760e-05
	4.262882669413054e-13
	2.136804997866956e-13
	9.725268024115936e-17
	2.125105144743686e-13
	7.131603103901702e-17
	1.519602417866154e-13
	3.061589396501247e-13
	2.820824343936424e-13
	1.980879543692981e-13
	1.567718945075202e-13
15		1.500000000000000e-01
	1.860778209779239e-04
	1.761695508411010e-01
	5.069502738205341e-03
	5.015168134669192e-04
	1.077814219901824e-04
	4.747379336758860e-13
	2.683771632359375e-13
	1.275583745588853e-16
	2.062332120653897e-13
	9.373722078515807e-17
	1.901273114433772e-13
	3.064183615611991e-13
	2.824296317910805e-13
	1.980879543692981e-13
	1.567718945075202e-13
16		1.600000000000000e-01
	2.430483409141976e-04
	1.761695508411010e-01
	6.357569093010159e-03
	6.263561892406053e-04
	1.387524635183165e-04
	5.301760452754040e-13
	3.307110611452927e-13
	1.653459721174535e-16
	1.992996381579938e-13
	1.218717411248000e-16
	2.332590949272129e-13
	3.066754330773529e-13
	2.827770237982484e-13
	1.980879543692981e-13
	1.567718945075202e-13
17		1.700000000000000e-01
	3.138834989083741e-04
	1.761695508411010e-01
	7.841682581125801e-03
	7.698768185068841e-04
	1.759496073476677e-04
	5.914663182237015e-13
	3.994074463137589e-13
	2.115620767254638e-16
	1.918473098332171e-13
	1.565274582598307e-16
	2.803431149824803e-13
	3.069301411604924e-13
	2.831245790562406e-13
	1.980879543692981e-13
	1.567718945075202e-13
18		1.800000000000000e-01
	4.005105565201375e-04
	1.761695508411010e-01
	9.514210772445127e-03
	9.314550748574875e-04
	2.196106272803267e-04
	6.569777443582683e-13
	4.726480869022890e-13
	2.669732355168546e-16
	1.840626842204624e-13
	1.983988597075539e-16
	3.300200805582092e-13
	3.071824737792092e-13
	2.834722656527514e-13
	1.980879543692981e-13
	1.567718945075202e-13
19		1.900000000000000e-01
	5.047553372875420e-04
	1.761695508411010e-01
	1.136296644652160e-02
	1.110098628987118e-03
	2.697364872024168e-04
	7.248189789974453e-13
	5.483324983309459e-13
	3.321130824446916e-16
	1.761543675840547e-13
	2.480172692626723e-16
	3.807868233914999e-13
	3.074324199076950e-13
	2.838200511296228e-13
	1.980879543692981e-13
	1.567718945075202e-13
20		2.000000000000000e-01
	6.283106064730636e-04
	1.761695508411010e-01
	1.337395149938788e-02
	1.304680071922895e-03
	3.261179078327990e-04
	7.931056766964606e-13
	6.243744359764369e-13
	4.072647303061966e-16
	1.683239759897174e-13
	3.057246020882995e-16
	4.312103252255702e-13
	3.076799695234315e-13
	2.841679024911793e-13
	1.980879543692981e-13
	1.567718945075202e-13
21		2.100000000000000e-01
	7.727293802141247e-04
	1.761695508411010e-01
	1.553349159378006e-02
	1.514104005399784e-03
	3.883894236058096e-04
	8.601826421436611e-13
	6.989471598877866e-13
	4.924777861304546e-16
	1.607430044697440e-13
	3.716735840357225e-16
	4.800910519676129e-13
	3.079251136036745e-13
	2.845157862133641e-13
	1.980879543692981e-13
	1.567718945075202e-13
22		2.200000000000001e-01
	9.394348013872719e-04
	1.761695508411010e-01
	1.782940043780607e-02
	1.737386272202001e-03
	4.560935454810415e-04
	9.247556871329167e-13
	7.706279394493312e-13
	5.876105379307106e-16
	1.535401371456547e-13
	4.458502385807757e-16
	5.265458824456889e-13
	3.081678441207586e-13
	2.848636682536896e-13
	1.980879543692981e-13
	1.567718945075202e-13
23		2.300000000000001e-01
	1.129737144412949e-03
	1.761695508411010e-01
	2.025128705782171e-02
	1.973664233843084e-03
	5.287398008495292e-04
	9.859299159973404e-13
	8.384387029819803e-13
	6.923844091210633e-16
	1.467988286062389e-13
	5.281103216423460e-16
	5.700158279899629e-13
	3.084081540362473e-13
	2.852115140620123e-13
	1.980879543692981e-13
	1.567718945075202e-13
24		2.400000000000001e-01
	1.344850969889558e-03
	1.761695508411010e-01
	2.279033799557041e-02
	2.222170900886294e-03
	6.058498734100949e-04
	1.043178897934502e-12
	9.018103327482488e-13
	8.064392805117907e-16
	1.405621259057414e-13
	6.182209112003375e-16
	6.102236574590360e-13
	3.086460372939560e-13
	2.855592885921433e-13
	1.980879543692981e-13
	1.567718945075202e-13
25		2.500000000000001e-01
	1.585908850458506e-03
	1.761695508411010e-01
	2.543889435464601e-02
	2.482199865114222e-03
	6.869865790859453e-04
	1.096276967471746e-12
	9.605065181861019e-13
	9.293822695849370e-16
	1.348410670160588e-13
	7.159003575236300e-16
	6.471092616513127e-13
	3.088814888118815e-13
	2.859069563143019e-13
	1.980879543692981e-13
	1.567718945075202e-13
26		2.600000000000001e-01
	1.853970752781360e-03
	1.761695508411010e-01
	2.819002989316275e-02
	2.753075732934919e-03
	7.717686746183788e-04
	1.145221233780160e-12
	1.014536636639890e-12
	1.060826664021150e-15
	1.296237704762494e-13
	8.208526161640690e-16
	6.807633563155942e-13
	3.091145044730684e-13
	2.862544812284199e-13
	1.980879543692981e-13
	1.567718945075202e-13
27		2.700000000000001e-01
	2.150029628057965e-03
	1.761695508411010e-01
	3.103722248605621e-02
	3.034134732298856e-03
	8.598752563841388e-04
	1.190159681845602e-12
	1.064075738054464e-12
	1.200420687290979e-15
	1.248835231038466e-13
	9.327944513749809e-16
	7.113707128094792e-13
	3.093450811154497e-13
	2.866018268783005e-13
	1.980879543692981e-13
	1.567718945075202e-13
28		2.800000000000001e-01
	2.475014279310374e-03
	1.761695508411010e-01
	3.397413712354408e-02
	3.324714696925520e-03
	9.510435572079751e-04
	1.231332708794658e-12
	1.109399665726972e-12
	1.347867413057933e-15
	1.205851756546279e-13
	1.051475648296853e-15
	7.391667609004804e-13
	3.095732165206974e-13
	2.869489563666367e-13
	1.980879543692981e-13
	1.567718945075202e-13
29		2.900000000000001e-01
	2.829790552923363e-03
	1.761695508411010e-01
	3.699450358678424e-02
	3.624151730653670e-03
	1.045063194684864e-03
	1.269029512194273e-12
	1.150836787626573e-12
	1.502937749640372e-15
	1.166897868180589e-13
	1.176693230586891e-15
	7.644071159798399e-13
	3.097989094021205e-13
	2.872958323708900e-13
	1.980879543692981e-13
	1.567718945075202e-13
30		3.000000000000001e-01
	3.215161668800118e-03
	1.761695508411010e-01
	4.009206198711144e-02
	3.931780852270794e-03
	1.141768987886669e-03
	1.303557707435033e-12
	1.188734467838313e-12
	1.665478403479153e-15
	1.131577611932412e-13
	1.308300969456018e-15
	7.873477236682721e-13
	3.100221593916545e-13
	2.876424171600283e-13
	1.980879543692981e-13
	1.567718945075202e-13
31		3.100000000000001e-01
	3.631868239841263e-03
	1.761695508411010e-01
	4.326055142928043e-02
	4.246938600620820e-03
	1.241033646111778e-03
	1.335223457353118e-12
	1.223437219405658e-12
	1.835416433810457e-15
	1.099508215136497e-13
	1.446215429032504e-15
	8.082329183834084e-13
	3.102429670259787e-13
	2.879886726121227e-13
	1.980879543692981e-13
	1.567718945075202e-13
32		3.200000000000001e-01
	4.080588312975635e-03
	1.761695508411010e-01
	4.649372307467566e-02
	4.568966317529845e-03
	1.342761037193309e-03
	1.364319360588258e-12
	1.255273458381317e-12
	2.012761634984748e-15
	1.070331405719556e-13
	1.590419600430432e-15
	8.272889886170252e-13
	3.104613337318078e-13
	2.883345602327963e-13
	1.980879543692981e-13
	1.567718945075202e-13
33		3.300000000000001e-01
	4.561937607947326e-03
	1.761695508411010e-01
	4.978536497060835e-02
	4.897213396997605e-03
	1.446880352198541e-03
	1.391117762008428e-12
	1.284548254210346e-12
	2.197607631510052e-15
	1.043719001665718e-13
	1.740964942305391e-15
	8.447213643829030e-13
	3.106772618104003e-13
	2.886800411745199e-13
	1.980879543692981e-13
	1.567718945075202e-13
34		3.400000000000001e-01
	5.076470029018340e-03
	1.761695508411010e-01
	5.312933082173336e-02
	5.231040163742309e-03
	1.553341250240635e-03
	1.415867681864479e-12
	1.311540071124507e-12
	2.390132283423450e-15
	1.019374784565491e-13
	1.897972425187414e-15
	8.607140617382999e-13
	3.108907544213270e-13
	2.890250762567456e-13
	1.980879543692981e-13
	1.567718945075202e-13
35		3.500000000000001e-01
	5.624678464437976e-03
	1.761695508411010e-01
	5.651956823990673e-02
	5.569820263156382e-03
	1.662109941386372e-03
	1.438794053732728e-12
	1.336500047007422e-12
	2.590597781996919e-15
	9.970340894330890e-14
	2.061632993144946e-15
	8.754304476852151e-13
	3.111018155655466e-13
	2.893696259868678e-13
	1.980879543692981e-13
	1.567718945075202e-13
36		3.600000000000002e-01
	6.206995855592570e-03
	1.761695508411010e-01
	5.995014417935598e-02
	5.912942559529725e-03
	1.773166107153970e-03
	1.460098360210525e-12
	1.359652800944381e-12
	2.799350659607183e-15
	9.764620860653624e-14
	2.232207713867942e-15
	8.890147097090476e-13
	3.113104500678328e-13
	2.897136505819959e-13
	1.980879543692981e-13
	1.567718945075202e-13
37		3.700000000000002e-01
	6.823796501994112e-03
	1.761695508411010e-01
	6.341526658350206e-02
	6.259812591626906e-03
	1.886500538715348e-03
	1.479960054517968e-12
	1.381198093494873e-12
	3.016821830131633e-15
	9.574513919296286e-14
	2.410027783229650e-15
	9.015936407300818e-13
	3.115166635585997e-13
	2.900571099915271e-13
	1.980879543692981e-13
	1.567718945075202e-13
38		3.800000000000002e-01
	7.475397562681704e-03
	1.761695508411010e-01
	6.690930202651259e-02
	6.609853652515693e-03
	2.002113374489281e-03
	1.498538369980182e-12
	1.401312901126486e-12
	3.243526705159181e-15
	9.398194214853622e-14
	2.595494476059741e-15
	9.132785035603252e-13
	3.117204624551702e-13
	2.903999639204963e-13
	1.980879543692981e-13
	1.567718945075202e-13
39		3.900000000000002e-01
	8.162060714687546e-03
	1.761695508411010e-01
	7.042678953663171e-02
	6.962507561104476e-03
	2.120012830346397e-03
	1.515974267019198e-12
	1.420153629882904e-12
	3.480065386412060e-15
	9.234057174988240e-14
	2.789079084285931e-15
	9.241668393825820e-13
	3.119218539425356e-13
	2.907421718536882e-13
	1.980879543692981e-13
	1.567718945075202e-13
40		4.000000000000002e-01
	8.883993932181438e-03
	1.761695508411010e-01
	7.396245098023647e-02
	7.317235185835422e-03
	2.240214330871624e-03
	1.532392366543615e-12
	1.437858303147228e-12
	3.727122908215512e-15
	9.080694048817148e-14
	2.991322850708571e-15
	9.343441486605531e-13
	3.121208459536519e-13
	2.910836930804824e-13
	1.980879543692981e-13
	1.567718945075202e-13
41		4.100000000000002e-01
	9.641353354119654e-03
	1.761695508411010e-01
	7.751119845501189e-02
	7.673516771482165e-03
	2.362739965703000e-03
	1.547902783801585e-12
	1.454548630296364e-12
	3.985469489882839e-15
	8.936868401533785e-14
	3.202836886597870e-15
	9.438854123432548e-13
	3.123174471493171e-13
	2.914244867204131e-13
	1.980879543692981e-13
	1.567718945075202e-13
42		4.200000000000002e-01
	1.043424521275832e-02
	1.761695508411010e-01
	8.106813914273132e-02
	8.030852110465100e-03
	2.487618209273654e-03
	1.562602818575922e-12
	1.470331909069065e-12
	4.255960752410826e-15
	8.801494875444621e-14
	3.424302050325711e-15
	9.528564447392260e-13
	3.125116668976769e-13
	2.917645117494092e-13
	1.980879543692981e-13
	1.567718945075202e-13
43		4.300000000000002e-01
	1.126272779975316e-02
	1.761695508411010e-01
	8.462857803980915e-02
	8.388760591573697e-03
	2.614883854687338e-03
	1.576578483724911e-12
	1.485302743130205e-12
	4.539537854052503e-15
	8.673620274065351e-14
	3.656468759609365e-15
	9.613150827732820e-13
	3.127035152534037e-13
	2.921037270266890e-13
	1.980879543692981e-13
	1.567718945075202e-13
44		4.400000000000002e-01
	1.212681345052033e-02
	1.761695508411010e-01
	8.818801893632969e-02
	8.746781151800878e-03
	2.744578122833762e-03
	1.589905869847573e-12
	1.499544573537545e-12
	4.837227503182098e-15
	8.552406880684549e-14
	3.900156709653461e-15
	9.693122233226162e-13
	3.128930029365908e-13
	2.924420913222759e-13
	1.980879543692981e-13
	1.567718945075202e-13
45		4.500000000000002e-01
	1.302647053097941e-02
	1.761695508411010e-01
	9.174216396245558e-02
	9.104472151142313e-03
	2.876748916328384e-03
	1.602652352911999e-12
	1.513131032636169e-12
	5.150141813047195e-15
	8.437117846278321e-14
	4.156254472100012e-15
	9.768927234432867e-13
	3.130801413114094e-13
	2.927795633450985e-13
	1.980879543692981e-13
	1.567718945075202e-13
46		4.600000000000002e-01
	1.396162541373762e-02
	1.761695508411010e-01
	9.528691197095045e-02
	9.461411185568100e-03
	3.011451194675317e-03
	1.614877656467318e-12
	1.526127134019708e-12
	5.479477970594377e-15
	8.327104447701641e-14
	4.425718954216735e-15
	9.840961791313023e-13
	3.132649423645666e-13
	2.931161017716410e-13
	1.980879543692981e-13
	1.567718945075202e-13
47		4.700000000000003e-01
	1.493216443322609e-02
	1.761695508411010e-01
	9.881835597882706e-02
	9.817194849735662e-03
	3.148747452461238e-03
	1.626634782173779e-12
	1.538590314386518e-12
	5.826517699926814e-15
	8.221795008733482e-14
	4.709574703451636e-15
	9.909575978125630e-13
	3.134474186836106e-13
	2.934516652751008e-13
	1.980879543692981e-13
	1.567718945075202e-13
48		4.800000000000003e-01
	1.593793581132657e-02
	1.761695508411010e-01
	1.023327798511716e-01
	1.017143845821799e-02
	3.288708286638503e-03
	1.637970822884762e-12
	1.550571343546150e-12
	6.192626509661585e-15
	8.120685282894992e-14
	5.008913048840661e-15
	9.975079786404127e-13
	3.136275834351197e-13
	2.937862125550152e-13
	1.980879543692981e-13
	1.567718945075202e-13
49		4.900000000000003e-01
	1.697875154668027e-02
	1.761695508411010e-01
	1.058266543761561e-01
	1.052377573189966e-02
	3.431413042261556e-03
	1.648927672077446e-12
	1.562115118243961e-12
	6.579252722177610e-15
	8.023330111130689e-14
	5.324891077397058e-15
	1.003774813270772e-12
	3.138054503428177e-13
	2.941197023673113e-13
	1.980879543692981e-13
	1.567718945075202e-13
50		5.000000000000002e-01
	1.805438926221647e-02
	1.761695508411010e-01
	1.092966328519234e-01
	1.087385845461215e-02
	3.576950528583909e-03
	1.659542642487113e-12
	1.573261354343831e-12
	6.987926291240819e-15
	7.929336185204164e-14
	5.658730450257321e-15
	1.009782518300890e-12
	3.139810336656531e-13
	2.944520935547328e-13
	1.980879543692981e-13
	1.567718945075202e-13
51		5.100000000000002e-01
	1.916459400652340e-02
	1.761695508411010e-01
	1.127395462828106e-01
	1.122135610392165e-02
	3.725419799347883e-03
	1.669849005622279e-12
