Title: ** sch_path: /home/designer/shared/amaru/analog/tb/tb_pmos_lv_vgs.sch
Date: Wed Sep  3 23:27:52  2025
Command: ngspice-44.2, Build Sun May  4 23:56:50 UTC 2025
Plotname: DC transfer characteristic
Flags: real
No. Variables: 16
No. Points: 151     
Variables:
	0	v(v-sweep)	voltage
	1	i(@n.xm1.nsg13_lv_pmos[ids])	current
	2	v(@n.xm1.nsg13_lv_pmos[vth])	voltage
	3	@n.xm1.nsg13_lv_pmos[gm]	admittance
	4	@n.xm1.nsg13_lv_pmos[gmb]	admittance
	5	@n.xm1.nsg13_lv_pmos[gds]	admittance
	6	@n.xm1.nsg13_lv_pmos[cgg]	capacitance
	7	@n.xm1.nsg13_lv_pmos[cgs]	capacitance
	8	@n.xm1.nsg13_lv_pmos[cgd]	capacitance
	9	@n.xm1.nsg13_lv_pmos[cgb]	capacitance
	10	@n.xm1.nsg13_lv_pmos[cdd]	capacitance
	11	@n.xm1.nsg13_lv_pmos[css]	capacitance
	12	@n.xm1.nsg13_lv_pmos[cgsol]	capacitance
	13	@n.xm1.nsg13_lv_pmos[cgdol]	capacitance
	14	@n.xm1.nsg13_lv_pmos[cjs]	capacitance
	15	@n.xm1.nsg13_lv_pmos[cjd]	capacitance
Values:
0		0.000000000000000e+00
	1.437878179309713e-02
	7.006058341529917e-01
	3.013745390713994e-02
	1.107684624358952e-02
	2.341616251412710e-03
	2.097935987507907e-12
	1.744059990044394e-12
	9.719721005828370e-14
	2.566787874052293e-13
	9.641622490993454e-14
	1.317543609141902e-12
	2.679665437380134e-13
	2.619949867359615e-13
	1.812354265024989e-13
	1.409699339570771e-13
1		1.000000000000000e-02
	1.407819935075611e-02
	7.005036496907109e-01
	2.997767777581452e-02
	1.098354817817831e-02
	2.225482450154842e-03
	2.094104653909097e-12
	1.743399031822860e-12
	9.248812968506129e-14
	2.582174924011760e-13
	9.184188007050315e-14
	1.317397105900388e-12
	2.679262104605518e-13
	2.618525293225671e-13
	1.812354265024989e-13
	1.409699339570771e-13
2		2.000000000000000e-02
	1.377925341371214e-02
	7.004014536966390e-01
	2.981016442977708e-02
	1.088825455334293e-02
	2.114742749815111e-03
	2.090359456200457e-12
	1.742670228917829e-12
	8.794663311242868e-14
	2.597425941701991e-13
	8.742415914797633e-14
	1.317221153362737e-12
	2.678852350304409e-13
	2.617076339417725e-13
	1.812354265024989e-13
	1.409699339570771e-13
3		3.000000000000000e-02
	1.348202103201131e-02
	7.002992463142408e-01
	2.963497951390135e-02
	1.079099147873297e-02
	2.009234845527668e-03
	2.086700998312356e-12
	1.741875663048079e-12
	8.357152326651685e-14
	2.612538119977599e-13
	8.316245531250996e-14
	1.317015978818276e-12
	2.678436055376543e-13
	2.615602641252571e-13
	1.812354265024989e-13
	1.409699339570771e-13
4		4.000000000000000e-02
	1.318657856259912e-02
	7.001970276910792e-01
	2.945219592600119e-02
	1.069178696914051e-02
	1.908792428255413e-03
	2.083129548843022e-12
	1.741017360529608e-12
	7.936124764204255e-14
	2.627509406713710e-13
	7.905580757265267e-14
	1.316781753226831e-12
	2.678013098374874e-13
	2.614103832940425e-13
	1.812354265024989e-13
	1.409699339570771e-13
5		5.000000000000000e-02
	1.289300159916360e-02
	7.000947979789516e-01
	2.926189333816762e-02
	1.059067083802891e-02
	1.813245942743266e-03
	2.079645040405731e-12
	1.740097273548203e-12
	7.531391513409675e-14
	2.642338517234316e-13
	7.510291432928443e-14
	1.316518584452851e-12
	2.677583355462527e-13
	2.612579547832451e-13
	1.812354265024989e-13
	1.409699339570771e-13
6		6.000000000000000e-02
	1.260136490688539e-02
	6.999925573340322e-01
	2.906415769475963e-02
	1.048767458530564e-02
	1.722423342484563e-03
	2.076247070641225e-12
	1.739117261723982e-12
	7.142731462317660e-14
	2.657024942940661e-13
	7.130214882011569e-14
	1.316226510616779e-12
	2.677146700369295e-13
	2.611029418680791e-13
	1.812354265024989e-13
	1.409699339570771e-13
7		7.000000000000001e-02
	1.231174236230362e-02
	6.998903059170216e-01
	2.885908069203458e-02
	1.038283128043655e-02
	1.636150835456330e-03
	2.072934904803806e-12
	1.738079074080269e-12
	6.769893509655366e-14
	2.671568956269834e-13
	6.765157626690235e-14
	1.315905493580005e-12
	2.676703004347704e-13
	2.609453077911286e-13
	1.812354265024989e-13
	1.409699339570771e-13
8		8.000000000000000e-02
	1.202420689845617e-02
	6.997880438932986e-01
	2.864675924457099e-02
	1.027617544204890e-02
	1.554253614609499e-03
	2.069707479806405e-12
	1.736984331515114e-12
	6.412598707439640e-14
	2.685971612168948e-13
	6.414897251981224e-14
	1.315555412573112e-12
	2.676252136128653e-13
	2.607850157909036e-13
	1.812354265024989e-13
	1.409699339570771e-13
9		9.000000000000000e-02
	1.173883045539952e-02
	6.996857714330822e-01
	2.842729494373016e-02
	1.016774291519511e-02
	1.476556567411850e-03
	2.066563409588098e-12
	1.735834509856534e-12
	6.070542509845417e-14
	2.700234746331103e-13
	6.079184397931004e-14
	1.315176057969525e-12
	2.675793961876668e-13
	2.606220291316918e-13
	1.812354265024989e-13
	1.409699339570771e-13
10		9.999999999999999e-02
	1.145568393616218e-02
	6.995834887115973e-01
	2.820079351342771e-02
	1.005757074746636e-02
	1.402884959130145e-03
	2.063500991648213e-12
	1.734630923564522e-12
	5.743397103469712e-14
	2.714360970489935e-13
	5.757744856577870e-14
	1.314767125199000e-12
	2.675328345144778e-13
	2.604563111347179e-13
	1.812354265024989e-13
	1.409699339570771e-13
11		1.100000000000000e-01
	1.117483716813173e-02
	6.994811959092493e-01
	2.796736426843236e-02
	9.945697065139392e-03
	1.333065084993839e-03
	2.060518214573513e-12
	1.733374710122356e-12
	5.430813793909477e-14
	2.728353665120619e-13
	5.450281750092446e-14
	1.314328208787161e-12
	2.674855146829056e-13
	2.602878252106129e-13
	1.812354265024989e-13
	1.409699339570771e-13
12		1.200000000000000e-01
	1.089635886982528e-02
	6.993788932118035e-01
	2.772711958029118e-02
	9.832160950521454e-03
	1.266924886897369e-03
	2.057612766370505e-12
	1.732066815138799e-12
	5.132425423774816e-14
	2.742216969939573e-13
	5.156477766295565e-14
	1.313858796498907e-12
	2.674374225122833e-13
	2.601165348932022e-13
	1.812354265024989e-13
	1.409699339570771e-13
13		1.300000000000000e-01
	1.062031662294190e-02
	6.992765808105763e-01
	2.748017435579068e-02
	9.717002321622632e-03
	1.204294530860560e-03
	2.054782043402608e-12
	1.730707978160572e-12
	4.847848797859398e-14
	2.755955772634419e-13
	4.875997427942298e-14
	1.313358263555019e-12
	2.673885435470642e-13
	2.599424038746073e-13
	1.812354265024989e-13
	1.409699339570771e-13
14		1.400000000000000e-01
	1.034677684954768e-02
	6.991742589026291e-01
	2.722664553261150e-02
	9.600261815234460e-03
	1.145006942065366e-03
	2.052023159722652e-12
	1.729298719171937e-12
	4.576687092171635e-14
	2.769575696289978e-13
	4.608489372736308e-14
	1.312825866882602e-12
	2.673388630521896e-13
	2.597653960416615e-13
	1.812354265024989e-13
	1.409699339570771e-13
15		1.500000000000000e-01
	1.007580479420102e-02
	6.990719276909738e-01
	2.696665159653421e-02
	9.481980674429409e-03
	1.088898294911323e-03
	2.049332956584787e-12
	1.727839325735732e-12
	4.318532224855580e-14
	2.783083086004991e-13
	4.353588621973054e-14
	1.312260739351518e-12
	2.672883660084363e-13
	2.595854755136287e-13
	1.812354265024989e-13
	1.409699339570771e-13
16		1.600000000000000e-01
	9.807464510780368e-03
	6.989695873847881e-01
	2.670031212418960e-02
	9.362200641422467e-03
	1.035808456167323e-03
	2.046708011915608e-12
	1.726329840707679e-12
	4.072967168653621e-14
	2.796484995213922e-13
	4.110918816964239e-14
	1.311661883940375e-12
	2.672370371077459e-13
	2.594026066812155e-13
	1.812354265024989e-13
	1.409699339570771e-13
17		1.700000000000000e-01
	9.541818853742102e-03
	6.988672381996353e-01
	2.642774735495973e-02
	9.240963856645362e-03
	9.855813799342853e-04
	2.044144649523095e-12
	1.724770050433677e-12
	3.839568186448785e-14
	2.809789172249304e-13
	3.880094403940786e-14
	1.311028167767136e-12
	2.671848607485409e-13
	2.592167542468595e-13
	1.812354265024989e-13
	1.409699339570771e-13
18		1.800000000000000e-01
	9.278929473499673e-03
	6.987648803576987e-01
	2.614907779520194e-02
	9.118312764794174e-03
	9.380654537583065e-04
	2.041638947822478e-12
	1.723159473318699e-12
	3.617906973505643e-14
	2.823004047687216e-13
	3.660722749908037e-14
	1.310358315911071e-12
	2.671318210310319e-13
	2.590278832662727e-13
	1.812354265024989e-13
	1.409699339570771e-13
19		1.900000000000000e-01
	9.018856815588189e-03
	6.986625140880238e-01
	2.586442385752478e-02
	8.994290028506250e-03
	8.931137958371159e-04
	2.039186747860837e-12
	1.721497348635180e-12
	3.407552692266881e-14
	2.836138723029892e-13
	3.452406173898024e-14
	1.309650904944447e-12
	2.670779017525205e-13
	2.588359591912146e-13
	1.812354265024989e-13
	1.409699339570771e-13
20		2.000000000000000e-01
	8.761660123250503e-03
	6.985601396267702e-01
	2.557390553737406e-02
	8.868938450218682e-03
	8.505845038334583e-04
	2.036783660425979e-12
	1.719782625419065e-12
	3.208073887887842e-14
	2.849202961280361e-13
	3.254743880165892e-14
	1.308904356083871e-12
	2.670230864027035e-13
	2.586409479134642e-13
	1.812354265024989e-13
	1.409699339570771e-13
21		2.100000000000000e-01
	8.507397443063773e-03
	6.984577572174779e-01
	2.527764212872739e-02
	8.742300902653443e-03
	8.103408563396472e-04
	2.034425072030381e-12
	1.718013951283127e-12
	3.019040275064652e-14
	2.862207179966068e-13
	3.067333782071564e-14
	1.308116927862864e-12
	2.669673581589836e-13
	2.584428158099547e-13
	1.812354265024989e-13
	1.409699339570771e-13
22		2.200000000000001e-01
	8.256125633207491e-03
	6.983553671113414e-01
	2.497575198023003e-02
	8.614420268265265e-03
	7.722514685190151e-04
	2.032106149566307e-12
	1.716189660958807e-12
	2.840024389067624e-14
	2.875162447168240e-13
	2.889774207609765e-14
	1.307286708218441e-12
	2.669106998817922e-13
	2.582415297890286e-13
	1.812354265024989e-13
	1.409699339570771e-13
23		2.300000000000001e-01
	8.007900373964190e-03
	6.982529695674999e-01
	2.466835229265926e-02
	8.485339387883680e-03
	7.361904038783439e-04
	2.029821843433728e-12
	1.714307764360531e-12
	2.670603096192105e-14
	2.888080481112754e-13
	2.721665479763866e-14
	1.306411605875358e-12
	2.668530941099308e-13
	2.580370573377679e-13
	1.812354265024989e-13
	1.409699339570771e-13
24		2.400000000000001e-01
	7.762776180036736e-03
	6.981505648533370e-01
	2.435555895817812e-02
	8.355101018680373e-03
	7.020372444941138e-04
	2.027566888947567e-12
	1.712365933949521e-12
	2.510358961037529e-14
	2.900973653876704e-13
	2.562611367009922e-14
	1.305489340902093e-12
	2.667945230559386e-13
	2.578293665703440e-13
	1.812354265024989e-13
	1.409699339570771e-13
25		2.500000000000001e-01
	7.520806414263927e-03
	6.980481532447973e-01
	2.403748644144326e-02
	8.223747801494007e-03
	6.696771223238965e-04
	2.025335805834658e-12
	1.710361491156756e-12
	2.358881470083648e-14
	2.913854999770655e-13
	2.412220401350969e-14
	1.304517434301994e-12
	2.667349686014905e-13
	2.576184262773303e-13
	1.812354265024989e-13
	1.409699339570771e-13
26		2.600000000000001e-01
	7.282043302316255e-03
	6.979457350267144e-01
	2.371424770226655e-02
	8.091322237458700e-03
	6.390007144793363e-04
	2.023122895632712e-12
	1.708291391607530e-12
	2.215768112923379e-14
	2.926738228959484e-13
	2.270107063181920e-14
	1.303493196491502e-12
	2.666744122928369e-13
	2.574042059759121e-13
	1.812354265024989e-13
	1.409699339570771e-13
27		2.700000000000001e-01
	7.046537947960531e-03
	6.978433104931583e-01
	2.338595415921273e-02
	7.957866673800407e-03
	6.099042055209414e-04
	2.020922236803728e-12
	1.706152208871719e-12
	2.080625324209270e-14
	2.939637746899160e-13
	2.135892834046920e-14
	1.302413714504378e-12
	2.666128353362900e-13
	2.571866759609215e-13
	1.812354265024989e-13
	1.409699339570771e-13
28		2.800000000000001e-01
	6.814340348486942e-03
	6.977408799477931e-01
	2.305271569322888e-02
	7.823423298595209e-03
	5.822892199573834e-04
	2.018727677370944e-12
	1.703940116444037e-12
	1.953069290856373e-14
	2.952568680183436e-13
	2.009207119928316e-14
	1.301275837746127e-12
	2.665502185937659e-13
	2.569658073566222e-13
	1.812354265024989e-13
	1.409699339570771e-13
29		2.900000000000001e-01
	6.585499409904358e-03
	6.976384437042569e-01
	2.271464069017243e-02
	7.688034144222080e-03
	5.560627281974160e-04
	2.016532824882334e-12
	1.701650867636837e-12
	1.832726630313172e-14
	2.965546909423654e-13
	1.889688049089761e-14
	1.300076162105948e-12
	2.664865425783929e-13
	2.567415721691581e-13
	1.812354265024989e-13
	1.409699339570771e-13
30		3.000000000000001e-01
	6.360062961521699e-03
	6.975360020865553e-01
	2.237183612091674e-02
	7.551741099193449e-03
	5.311369292140218e-04
	2.014331033493117e-12
	1.699279773043402e-12
	1.719234946755595e-14
	2.978589109821592e-13
	1.776983149672761e-14
	1.298811012214163e-12
	2.664217874501925e-13
	2.565139433395783e-13
	1.812354265024989e-13
	1.409699339570771e-13
31		3.100000000000001e-01
	6.138077769545869e-03
	6.974335554294784e-01
	2.202440765757110e-02
	7.414585928007905e-03
	5.074291131428699e-04
	2.012115387944762e-12
	1.696821675201490e-12
	1.612243272881347e-14
	2.991712800144586e-13
	1.670749913214741e-14
	1.297476421610556e-12
	2.663559330118460e-13
	2.562828947973402e-13
	1.812354265024989e-13
	1.409699339570771e-13
32		3.200000000000001e-01
	5.919589549343669e-03
	6.973311040790311e-01
	2.167245982426354e-02
	7.276610298640171e-03
	4.848615069564689e-04
	2.009878684197960e-12
	1.694270920054194e-12
	1.511412405591818e-14
	3.004936400878483e-13
	1.570656251022119e-14
	1.296068110562867e-12
	2.662889587045544e-13
	2.560484015141900e-13
	1.812354265024989e-13
	1.409699339570771e-13
33		3.300000000000001e-01
	5.704642976029784e-03
	6.972286483928911e-01
	2.131609618088633e-02
	7.137855817269350e-03
	4.633611062368156e-04
	2.007613406450912e-12
	1.691621324767315e-12
	1.416415144254483e-14
	3.018279302410522e-13
	1.476380850897906e-14
	1.294581461244377e-12
	2.662208436040047e-13
	2.558104395583116e-13
	1.812354265024989e-13
	1.409699339570771e-13
34		3.400000000000001e-01
	5.493281693058963e-03
	6.971261887408848e-01
	2.095541953819905e-02
	6.998364069836590e-03
	4.428594959194090e-04
	2.005311700241705e-12
	1.688866141417485e-12
	1.326936440459305e-14
	3.031761944196269e-13
	1.387613442104406e-14
	1.293011489943837e-12
	2.661515664164527e-13
	2.555689861486291e-13
	1.812354265024989e-13
	1.409699339570771e-13
35		3.500000000000001e-01
	5.285548318517046e-03
	6.970237255054883e-01
	2.059053220272520e-02
	6.858176670030558e-03
	4.232926627063736e-04
	2.002965341293786e-12
	1.685998016013346e-12
	1.242673468233274e-14
	3.045405905981074e-13
	1.304054976650778e-14
	1.291352815939872e-12
	2.660811054749354e-13
	2.553240197091434e-13
	1.812354265024989e-13
	1.409699339570771e-13
36		3.600000000000002e-01
	5.081484448820484e-03
	6.969212590823501e-01
	2.022153624995176e-02
	6.717335313310331e-03
	4.046008016519313e-04
	2.000565699715364e-12
	1.683008942250417e-12
	1.163335623579612e-14
	3.059234012291507e-13
	1.225417735049649e-14
	1.289599626623583e-12
	2.660094387356246e-13
	2.550755199231768e-13
	1.812354265024989e-13
	1.409699339570771e-13
37		3.700000000000002e-01
	4.881130659547712e-03
	6.968187898808447e-01
	1.984853382445044e-02
	6.575881836598968e-03
	3.867281192157361e-04
	1.998103699106229e-12
	1.679890209328343e-12
	1.088644461981401e-14
	3.073270451580721e-13
	1.151425364605192e-14
	1.287745638396946e-12
	2.659365437743363e-13
	2.548234677873943e-13
	1.812354265024989e-13
	1.409699339570771e-13
38		3.800000000000002e-01
	4.684526503140433e-03
	6.967163183246505e-01
	1.947162746568507e-02
	6.433858283312381e-03
	3.696226348639907e-04
	1.995569770058079e-12
	1.676632343075046e-12
	1.018333582177692e-14
	3.087540911612559e-13
	1.081812858097543e-14
	1.285784052809083e-12
	2.658623977832090e-13
	2.545678456654656e-13
	1.812354265024989e-13
	1.409699339570771e-13
39		3.900000000000002e-01
	4.491710503222504e-03
	6.966138448523578e-01
	1.909092045843588e-02
	6.291306973426431e-03
	3.532359830796573e-04
	1.992953797454978e-12
	1.673225039523608e-12
	9.521484641001482e-15
	3.102072732903684e-13
	1.016326480432203e-14
	1.283707507316067e-12
	2.657869775675655e-13
	2.543086373412268e-13
	1.812354265024989e-13
	1.409699339570771e-13
40		4.000000000000002e-01
	4.302720145295576e-03
	6.965113699181056e-01
	1.870651720697281e-02
	6.148270578332735e-03
	3.375232174263260e-04
	1.990245060888449e-12
	1.669657089972917e-12
	8.898462683757088e-15
	3.116895082317748e-13
	9.547236504514028e-15
	1.281508019961046e-12
	2.657102595429743e-13
	2.540458280711968e-13
	1.812354265024989e-13
	1.409699339570771e-13
41		4.100000000000002e-01
	4.117591863576700e-03
	6.964088939922566e-01
	1.831852363232602e-02
	6.004792200286020e-03
	3.224426180989132e-04
	1.987432167394122e-12
	1.665916296428906e-12
	8.311956042693688e-15
	3.132039149225226e-13
	8.967727846715774e-15
	1.279176927167626e-12
	2.656322197325250e-13
	2.537794046362986e-13
	1.812354265024989e-13
	1.409699339570771e-13
42		4.200000000000002e-01
	3.936361023749825e-03
	6.963064175620997e-01
	1.792704759225068e-02
	5.860915456307968e-03
	3.079555041920981e-04
	1.984502975593053e-12
	1.661989376167866e-12
	7.759762723832466e-15
	3.147538367013548e-13
	8.422531092385265e-15
	1.276704813718839e-12
	2.655528337643364e-13
	2.535093553926341e-13
	1.812354265024989e-13
	1.409699339570771e-13
43		4.300000000000002e-01
	3.759061901404732e-03
	6.962039411325953e-01
	1.753219932374505e-02
	5.716684566480100e-03
	2.940260517267273e-04
	1.981444510176949e-12
	1.657861853982220e-12
	7.239789878557417e-15
	3.163428663161710e-13
	7.909544458921463e-15
	1.274081433853121e-12
	2.654720768693129e-13
	2.532356703211558e-13
	1.812354265024989e-13
	1.409699339570771e-13
44		4.400000000000002e-01
	3.585727655937536e-03
	6.961014652271562e-01
	1.713409190827273e-02
	5.572144446632224e-03
	2.806211182977926e-04
	1.978242865511422e-12
	1.653517940459685e-12
	6.750050892347416e-15
	3.179748741593891e-13
	7.426769772227386e-15
	1.271295622244734e-12
	2.653899238791679e-13
	2.529583410760782e-13
	1.812354265024989e-13
	1.409699339570771e-13
45		4.500000000000002e-01
	3.416390299683768e-03
	6.959989903884707e-01
	1.673284176015526e-02
	5.427340805519196e-03
	2.677100750466440e-04
	1.974883096940790e-12
	1.648940394404408e-12
	6.288662376417960e-15
	3.196540401599641e-13
	6.972309959918090e-15
	1.268335193444952e-12
	2.653063492247334e-13
	2.526773610318699e-13
	1.812354265024989e-13
	1.409699339570771e-13
46		4.600000000000002e-01
	3.251080662048189e-03
	6.958965171793694e-01
	1.632856913894479e-02
	5.282320246670420e-03
	2.552646465160425e-04
	1.971349098159120e-12
	1.644110367228560e-12
	5.853841103108085e-15
	3.213848898274528e-13
	6.544366427933906e-15
	1.265186828137679e-12
	2.652213269345744e-13
	2.523927253286641e-13
	1.812354265024989e-13
	1.409699339570771e-13
47		4.700000000000003e-01
	3.089828348386467e-03
	6.957940461837397e-01
	1.592139868697465e-02
	5.137130375203509e-03
	2.432587588205238e-04
	1.967623462761328e-12
	1.639007226820438e-12
	5.443900920839817e-15
	3.231723350200503e-13
	6.141236358566773e-15
	1.261835944303971e-12
	2.651348306339288e-13
	2.521044309159291e-13
	1.812354265024989e-13
	1.409699339570771e-13
48		4.800000000000003e-01
	2.932661693378727e-03
	6.956915780074886e-01
	1.551145999371181e-02
	4.991819910014051e-03
	2.316683964565417e-04
	1.963687327800697e-12
	1.633608358024342e-12
	5.057249679850871e-15
	3.250217200965043e-13
	5.761309963435894e-15
	1.258266551088282e-12
	2.650468335439948e-13
	2.518124765942355e-13
	1.812354265024989e-13
	1.409699339570771e-13
49		4.900000000000003e-01
	2.779607708616914e-03
	6.955891132795577e-01
	1.509888818903158e-02
	4.846438801892779e-03
	2.204714679874366e-04
	1.959520196851464e-12
	1.627888936442770e-12
	4.692386195718381e-15
	3.269388742129757e-13
	5.403067720824480e-15
	1.254461082808734e-12
	2.649573084815851e-13
	2.515168630549618e-13
	1.812354265024989e-13
	1.409699339570771e-13
50		5.000000000000002e-01
	2.630692024103999e-03
	6.954866526529964e-01
	1.468382456811105e-02
	4.701038358287612e-03
	2.096476807672300e-04
	1.955099739702600e-12
	1.621821671787318e-12
	4.347897273981209e-15
	3.289301706413010e-13
	5.065077623048952e-15
	1.250400210147225e-12
	2.648662278591728e-13
	2.512175929177809e-13
	1.812354265024989e-13
	1.409699339570771e-13
51		5.100000000000002e-01
	2.485938823332244e-03
	6.953841968060921e-01
	1.426641725132154e-02
	4.555671375624476e-03
	1.991784248143240e-04
	1.950401565387529e-12
